!Keysight Technologies,P9371A,MY57212015,A.15.65.19
!Date: Friday, July 01, 2022 14:54:25
!Correction: S11(C  1-Port  ) 
!S1P File: Measurement: S11:
# Hz S  dB   R 50
700000000 -5.1924672 178.63148
700500000 -5.2461238 177.21555
701000000 -5.3000517 175.73724
701500000 -5.3558178 174.26598
702000000 -5.4064603 172.77927
702500000 -5.455102 171.28496
703000000 -5.503758 169.78534
703500000 -5.5534697 168.22391
704000000 -5.6010599 166.62491
704500000 -5.6509871 165.05043
705000000 -5.6933274 163.43034
705500000 -5.7376575 161.81024
706000000 -5.7780037 160.15442
706500000 -5.8269367 158.5013
707000000 -5.8613648 156.81134
707500000 -5.9036183 155.14764
708000000 -5.9447532 153.40135
708500000 -5.9780455 151.69415
709000000 -6.0117331 149.96077
709500000 -6.0448227 148.24063
710000000 -6.0736694 146.48843
710500000 -6.100883 144.74791
711000000 -6.1232104 142.98335
711500000 -6.1486421 141.20645
712000000 -6.1677909 139.35451
712500000 -6.1855464 137.54677
713000000 -6.1942534 135.75826
713500000 -6.2143254 133.93286
714000000 -6.2280297 132.11275
714500000 -6.2332835 130.29384
715000000 -6.2365665 128.43727
715500000 -6.2458601 126.6588
716000000 -6.2424889 124.82399
716500000 -6.238934 123.02163
717000000 -6.2361274 121.17946
717500000 -6.2310181 119.35746
718000000 -6.2215009 117.53542
718500000 -6.2016835 115.7232
719000000 -6.1941562 113.92992
719500000 -6.1766491 112.08147
720000000 -6.1586323 110.30276
720500000 -6.1358056 108.51752
721000000 -6.1151209 106.75456
721500000 -6.0859566 104.96838
722000000 -6.0640268 103.20979
722500000 -6.0350804 101.51437
723000000 -6.0040584 99.798126
723500000 -5.9754615 98.121689
724000000 -5.9373751 96.410507
724500000 -5.9033608 94.720451
725000000 -5.8727593 93.056419
725500000 -5.8262806 91.449913
726000000 -5.7872343 89.826302
726500000 -5.7504349 88.223236
727000000 -5.7069144 86.632179
727500000 -5.666152 85.067612
728000000 -5.6224704 83.516533
728500000 -5.5707731 82.013206
729000000 -5.5331931 80.434349
729500000 -5.4813147 78.959869
730000000 -5.4311495 77.46064
730500000 -5.3874869 76.024826
731000000 -5.3421025 74.546089
731500000 -5.2889547 73.143707
732000000 -5.2401967 71.716232
732500000 -5.1920152 70.369522
733000000 -5.1473079 68.997803
733500000 -5.1018763 67.642044
734000000 -5.0491176 66.327789
734500000 -5.0027943 65.014732
735000000 -4.9504457 63.755638
735500000 -4.9072237 62.495178
736000000 -4.8580303 61.225796
736500000 -4.8096223 60.01384
737000000 -4.7535195 58.805805
737500000 -4.7050815 57.644291
738000000 -4.65482 56.470501
738500000 -4.6109591 55.278706
739000000 -4.5598559 54.158501
739500000 -4.5073223 53.071808
740000000 -4.4617124 51.951393
740500000 -4.4103403 50.895897
741000000 -4.3578243 49.820663
741500000 -4.3162699 48.759186
742000000 -4.2644224 47.681625
742500000 -4.2183819 46.694763
743000000 -4.1642985 45.673252
743500000 -4.1219101 44.655834
744000000 -4.0701904 43.65794
744500000 -4.0235863 42.703617
745000000 -3.9774528 41.734501
745500000 -3.9373655 40.764305
746000000 -3.8894069 39.82539
746500000 -3.8476861 38.918987
747000000 -3.8033397 38.005657
747500000 -3.7620575 37.087807
748000000 -3.7183721 36.209728
748500000 -3.6702244 35.324509
749000000 -3.6308203 34.474583
749500000 -3.5922475 33.60498
750000000 -3.553757 32.814888
750500000 -3.5142126 31.971413
751000000 -3.4753606 31.14682
751500000 -3.4377677 30.352097
752000000 -3.3970156 29.535469
752500000 -3.3572896 28.776196
753000000 -3.3225343 28.020266
753500000 -3.2850904 27.239113
754000000 -3.2449303 26.478024
754500000 -3.2098877 25.756393
755000000 -3.1777689 25.007883
755500000 -3.1398549 24.304022
756000000 -3.1028597 23.579271
756500000 -3.0664401 22.881826
757000000 -3.0305367 22.161919
757500000 -2.9956133 21.45055
758000000 -2.9620576 20.777792
758500000 -2.9259782 20.094162
759000000 -2.8976955 19.416428
759500000 -2.8642182 18.72298
760000000 -2.8332913 18.09885
760500000 -2.8031774 17.425434
761000000 -2.7728357 16.756292
761500000 -2.7450333 16.145433
762000000 -2.712589 15.500923
762500000 -2.6853666 14.856181
763000000 -2.6548517 14.256761
763500000 -2.6294448 13.664474
764000000 -2.6072516 13.040565
764500000 -2.5790162 12.462278
765000000 -2.5508466 11.883825
765500000 -2.5215292 11.303845
766000000 -2.4960654 10.71684
766500000 -2.4692576 10.146602
767000000 -2.4486163 9.5790443
767500000 -2.4173398 9.0334969
768000000 -2.3977973 8.461359
768500000 -2.3695641 7.918323
769000000 -2.351459 7.3537269
769500000 -2.32394 6.8196249
770000000 -2.303334 6.2618108
770500000 -2.2840064 5.7581449
771000000 -2.2562425 5.2228904
771500000 -2.2345262 4.6849914
772000000 -2.2174451 4.1917748
772500000 -2.1974576 3.677186
773000000 -2.1812832 3.1656389
773500000 -2.1589441 2.651679
774000000 -2.1434772 2.1645017
774500000 -2.1272838 1.6940315
775000000 -2.1062214 1.2104682
775500000 -2.0893385 0.73878926
776000000 -2.0754774 0.25051317
776500000 -2.0543947 -0.18201967
777000000 -2.0406904 -0.66878009
777500000 -2.0255425 -1.100601
778000000 -2.0071275 -1.5441549
778500000 -1.9887056 -1.9524802
779000000 -1.9732792 -2.4125273
779500000 -1.9599032 -2.8636131
780000000 -1.9408811 -3.2924402
780500000 -1.9281673 -3.7130313
781000000 -1.9072253 -4.1295857
781500000 -1.8960352 -4.5409617
782000000 -1.878536 -4.9069023
782500000 -1.8661261 -5.3541279
783000000 -1.8449181 -5.7476087
783500000 -1.828938 -6.1555858
784000000 -1.8202754 -6.5618315
784500000 -1.8038671 -6.9703412
785000000 -1.78475 -7.3556962
785500000 -1.7708699 -7.7442932
786000000 -1.7540843 -8.1453829
786500000 -1.7396367 -8.5293169
787000000 -1.7253907 -8.9246569
787500000 -1.7126935 -9.287673
788000000 -1.6960493 -9.7061071
788500000 -1.6834315 -10.080153
789000000 -1.6647069 -10.450964
789500000 -1.6546859 -10.86305
790000000 -1.6415126 -11.207109
790500000 -1.6259418 -11.585595
791000000 -1.6103091 -11.947265
791500000 -1.6018603 -12.267934
792000000 -1.5933777 -12.676034
792500000 -1.582707 -13.061797
793000000 -1.5654505 -13.404758
793500000 -1.5549983 -13.76848
794000000 -1.5439789 -14.097632
794500000 -1.5322551 -14.471187
795000000 -1.5201241 -14.810966
795500000 -1.5120265 -15.16622
796000000 -1.4970423 -15.497274
796500000 -1.4859436 -15.874318
797000000 -1.4787877 -16.247564
797500000 -1.4688959 -16.561327
798000000 -1.4608994 -16.874821
798500000 -1.4444232 -17.212271
799000000 -1.4338126 -17.537277
799500000 -1.4315989 -17.861721
800000000 -1.4190183 -18.222309
800500000 -1.4070592 -18.533926
801000000 -1.3986382 -18.8248
801500000 -1.3904248 -19.156502
802000000 -1.3821485 -19.509705
802500000 -1.3743994 -19.822111
803000000 -1.3692709 -20.139627
803500000 -1.3580108 -20.448996
804000000 -1.3486338 -20.779247
804500000 -1.3431824 -21.091663
805000000 -1.3336786 -21.419498
805500000 -1.3286597 -21.714876
806000000 -1.3242453 -22.018658
806500000 -1.3133121 -22.344378
807000000 -1.3061082 -22.631718
807500000 -1.2983019 -22.928789
808000000 -1.2961895 -23.235376
808500000 -1.280535 -23.548853
809000000 -1.27661 -23.818232
809500000 -1.2714214 -24.122002
810000000 -1.2588135 -24.425507
810500000 -1.2533842 -24.704042
811000000 -1.2514362 -25.033043
811500000 -1.2440299 -25.309887
812000000 -1.2393435 -25.573044
812500000 -1.2338552 -25.890142
813000000 -1.2283245 -26.162985
813500000 -1.2219012 -26.458185
814000000 -1.2137219 -26.739143
814500000 -1.2084116 -27.050339
815000000 -1.2039424 -27.312323
815500000 -1.199383 -27.587296
816000000 -1.1944069 -27.875507
816500000 -1.191638 -28.153021
817000000 -1.1877121 -28.40995
817500000 -1.1816536 -28.722189
818000000 -1.1777686 -28.979151
818500000 -1.1738234 -29.276352
819000000 -1.1721097 -29.4891
819500000 -1.163941 -29.795778
820000000 -1.1627134 -30.059517
820500000 -1.1601357 -30.355404
821000000 -1.1545049 -30.611015
821500000 -1.1540295 -30.889172
822000000 -1.1448447 -31.136515
822500000 -1.1470555 -31.421101
823000000 -1.1382219 -31.645882
823500000 -1.1414964 -31.901875
824000000 -1.137543 -32.20129
824500000 -1.1361274 -32.402672
825000000 -1.1288958 -32.721077
825500000 -1.1285383 -32.963543
826000000 -1.1231503 -33.220131
826500000 -1.1221527 -33.433434
827000000 -1.1152598 -33.70578
827500000 -1.112251 -33.973946
828000000 -1.1076885 -34.216599
828500000 -1.1035548 -34.427986
829000000 -1.1013306 -34.711681
829500000 -1.1064136 -34.968643
830000000 -1.0947454 -35.202797
830500000 -1.0913495 -35.435913
831000000 -1.0912765 -35.69392
831500000 -1.0879238 -35.902267
832000000 -1.0841261 -36.186966
832500000 -1.084233 -36.430882
833000000 -1.0845407 -36.693325
833500000 -1.0788212 -36.931915
834000000 -1.0696431 -37.182697
834500000 -1.0783092 -37.445507
835000000 -1.0775901 -37.662025
835500000 -1.0682486 -37.896439
836000000 -1.0758514 -38.129498
836500000 -1.0642047 -38.421295
837000000 -1.0669653 -38.633331
837500000 -1.0657929 -38.849148
838000000 -1.0606878 -39.0938
838500000 -1.0611157 -39.340534
839000000 -1.0614493 -39.562122
839500000 -1.0557582 -39.807083
840000000 -1.0566176 -40.023785
840500000 -1.0520529 -40.284313
841000000 -1.0566827 -40.495262
841500000 -1.0539771 -40.729069
842000000 -1.0479519 -40.995586
842500000 -1.0459127 -41.223042
843000000 -1.0499535 -41.425369
843500000 -1.0440731 -41.663937
844000000 -1.0449578 -41.923325
844500000 -1.0476297 -42.161098
845000000 -1.0489413 -42.367378
845500000 -1.0406352 -42.663109
846000000 -1.0397426 -42.826252
846500000 -1.0381875 -43.086285
847000000 -1.039386 -43.318352
847500000 -1.0412589 -43.562187
848000000 -1.0371517 -43.802158
848500000 -1.0404958 -44.022758
849000000 -1.0379436 -44.257252
849500000 -1.0413873 -44.47604
850000000 -1.0393857 -44.737106
850500000 -1.0411944 -44.935524
851000000 -1.0349935 -45.194695
851500000 -1.0388132 -45.440475
852000000 -1.0370269 -45.637806
852500000 -1.0333768 -45.891262
853000000 -1.0373937 -46.101074
853500000 -1.0426252 -46.334469
854000000 -1.0418038 -46.579449
854500000 -1.0402207 -46.822472
855000000 -1.0346184 -47.002048
855500000 -1.0425692 -47.267212
856000000 -1.0408227 -47.487518
856500000 -1.04818 -47.700729
857000000 -1.0473338 -47.917431
857500000 -1.0436001 -48.160599
858000000 -1.0472705 -48.390045
858500000 -1.05106 -48.641857
859000000 -1.051946 -48.856049
859500000 -1.0525675 -49.093357
860000000 -1.0534734 -49.306305
860500000 -1.0548347 -49.503738
861000000 -1.0595851 -49.779633
861500000 -1.0577608 -50.002476
862000000 -1.0533941 -50.214367
862500000 -1.0566454 -50.414322
863000000 -1.0615118 -50.642815
863500000 -1.058427 -50.87674
864000000 -1.0646622 -51.112564
864500000 -1.0636011 -51.346085
865000000 -1.0719414 -51.565407
865500000 -1.0678235 -51.794411
866000000 -1.0672231 -51.984985
866500000 -1.0730617 -52.23259
867000000 -1.0654664 -52.458229
867500000 -1.0727257 -52.677467
868000000 -1.0753361 -52.933334
868500000 -1.0787336 -53.144711
869000000 -1.0803341 -53.37138
869500000 -1.0821742 -53.602699
870000000 -1.0833228 -53.813335
870500000 -1.0801196 -54.028725
871000000 -1.0849591 -54.299442
871500000 -1.0857863 -54.498486
872000000 -1.0878546 -54.760513
872500000 -1.0849156 -54.942505
873000000 -1.0885421 -55.202526
873500000 -1.0918586 -55.415363
874000000 -1.0891694 -55.69833
874500000 -1.096619 -55.933174
875000000 -1.0916985 -56.152962
875500000 -1.0932302 -56.390751
876000000 -1.0982515 -56.64864
876500000 -1.1011672 -56.866295
877000000 -1.0987508 -57.132904
877500000 -1.1001565 -57.388451
878000000 -1.105141 -57.597279
878500000 -1.1090177 -57.821774
879000000 -1.1120871 -58.12088
879500000 -1.1104205 -58.336285
880000000 -1.1159191 -58.560177
880500000 -1.1206932 -58.836403
881000000 -1.1227471 -59.08762
881500000 -1.1226089 -59.352898
882000000 -1.1276172 -59.590137
882500000 -1.128022 -59.869183
883000000 -1.1304419 -60.111408
883500000 -1.1383063 -60.356239
884000000 -1.1352485 -60.554287
884500000 -1.1443268 -60.840595
885000000 -1.1440691 -61.087696
885500000 -1.1476744 -61.332287
886000000 -1.1503931 -61.619728
886500000 -1.1600398 -61.86832
887000000 -1.1616638 -62.121937
887500000 -1.1662697 -62.382851
888000000 -1.1678315 -62.621006
888500000 -1.1721179 -62.91135
889000000 -1.1737976 -63.181908
889500000 -1.1780179 -63.447357
890000000 -1.1846993 -63.712654
890500000 -1.1950697 -63.978008
891000000 -1.1987116 -64.239838
891500000 -1.2028854 -64.501991
892000000 -1.2034841 -64.783295
892500000 -1.2091823 -65.065277
893000000 -1.2161208 -65.330193
893500000 -1.2251778 -65.627769
894000000 -1.2327464 -65.856087
894500000 -1.2349263 -66.157661
895000000 -1.2442236 -66.442635
895500000 -1.2434735 -66.726738
896000000 -1.2545871 -67.024399
896500000 -1.2608918 -67.268898
897000000 -1.2700434 -67.552727
897500000 -1.2716202 -67.841614
898000000 -1.2788035 -68.154533
898500000 -1.2848248 -68.425468
899000000 -1.2914375 -68.69355
899500000 -1.293641 -69.022026
900000000 -1.3016409 -69.309608
900500000 -1.3089002 -69.579926
901000000 -1.319481 -69.887352
901500000 -1.3297477 -70.209991
902000000 -1.3374343 -70.474861
902500000 -1.3447362 -70.7537
903000000 -1.3504421 -71.083397
903500000 -1.3556952 -71.402573
904000000 -1.3696285 -71.745857
904500000 -1.3706999 -72.026268
905000000 -1.3795938 -72.358658
905500000 -1.3924062 -72.666084
906000000 -1.4026173 -72.971519
906500000 -1.4115697 -73.277206
907000000 -1.4161168 -73.622986
907500000 -1.4282434 -73.950752
908000000 -1.4374348 -74.270447
908500000 -1.4494534 -74.561378
909000000 -1.4592378 -74.901833
909500000 -1.4707881 -75.234253
910000000 -1.4783111 -75.575058
910500000 -1.4866927 -75.89534
911000000 -1.499017 -76.239998
911500000 -1.5072999 -76.581123
912000000 -1.5201451 -76.916679
912500000 -1.5338374 -77.24588
913000000 -1.5453484 -77.612732
913500000 -1.5541129 -77.950897
914000000 -1.5597905 -78.316406
914500000 -1.5725203 -78.658676
915000000 -1.5895851 -79.009232
915500000 -1.603256 -79.426468
916000000 -1.6091102 -79.750031
916500000 -1.6220384 -80.141266
917000000 -1.637048 -80.490891
917500000 -1.6538224 -80.88205
918000000 -1.6608065 -81.244461
918500000 -1.6760352 -81.61161
919000000 -1.6879205 -82.029091
919500000 -1.7049876 -82.404068
920000000 -1.7227437 -82.791817
920500000 -1.7322471 -83.187408
921000000 -1.7500957 -83.599007
921500000 -1.7618146 -83.98661
922000000 -1.7759564 -84.383453
922500000 -1.7958828 -84.796082
923000000 -1.8103129 -85.201569
923500000 -1.8296788 -85.638763
924000000 -1.8429787 -86.020271
924500000 -1.8593125 -86.488533
925000000 -1.8749852 -86.897141
925500000 -1.8887899 -87.33918
926000000 -1.9099976 -87.785416
926500000 -1.9236792 -88.250366
927000000 -1.9424806 -88.688683
927500000 -1.9552161 -89.168968
928000000 -1.9801066 -89.61734
928500000 -1.9967014 -90.078758
929000000 -2.0152309 -90.563866
929500000 -2.03705 -91.054649
930000000 -2.0563323 -91.551712
930500000 -2.0818527 -92.016098
931000000 -2.0994465 -92.53627
931500000 -2.1276088 -93.048721
932000000 -2.1432941 -93.559792
932500000 -2.1689255 -94.061409
933000000 -2.1948893 -94.578262
933500000 -2.2133141 -95.100586
934000000 -2.243881 -95.620338
934500000 -2.2646408 -96.184563
935000000 -2.2989826 -96.705353
935500000 -2.3214447 -97.306961
936000000 -2.3448963 -97.843872
936500000 -2.3780394 -98.38662
937000000 -2.4028418 -98.985359
937500000 -2.4289382 -99.549553
938000000 -2.4614193 -100.13287
938500000 -2.4918735 -100.70528
939000000 -2.5201378 -101.29786
939500000 -2.5481415 -101.91086
940000000 -2.5853615 -102.49924
940500000 -2.6149414 -103.1466
941000000 -2.6421981 -103.73409
941500000 -2.6765532 -104.4213
942000000 -2.7113144 -105.05711
942500000 -2.7474136 -105.74532
943000000 -2.7781849 -106.426
943500000 -2.8170426 -107.10371
944000000 -2.853807 -107.78797
944500000 -2.8910906 -108.48785
945000000 -2.929471 -109.21465
945500000 -2.9809613 -109.91422
946000000 -3.0138714 -110.67045
946500000 -3.059402 -111.40547
947000000 -3.0968111 -112.17967
947500000 -3.1514773 -112.89699
948000000 -3.1895349 -113.71333
948500000 -3.2376499 -114.47906
949000000 -3.2896767 -115.26028
949500000 -3.3345726 -116.076
950000000 -3.3874652 -116.9256
950500000 -3.4356792 -117.72836
951000000 -3.4870977 -118.56207
951500000 -3.5419981 -119.43266
952000000 -3.598649 -120.27409
952500000 -3.6495416 -121.13847
953000000 -3.7129951 -122.04488
953500000 -3.7661846 -122.93845
954000000 -3.8198879 -123.85402
954500000 -3.8787115 -124.82219
955000000 -3.937623 -125.73682
955500000 -4.0062122 -126.68057
956000000 -4.0701327 -127.68103
956500000 -4.134789 -128.63809
957000000 -4.1975508 -129.67467
957500000 -4.2698421 -130.66763
958000000 -4.3370605 -131.71405
958500000 -4.3978987 -132.81677
959000000 -4.4695044 -133.85252
959500000 -4.5471478 -134.98314
960000000 -4.607677 -136.05565
960500000 -4.6861782 -137.23349
961000000 -4.7562313 -138.37306
961500000 -4.8342438 -139.56377
962000000 -4.9051647 -140.78374
962500000 -4.9808264 -142.00258
963000000 -5.062964 -143.25
963500000 -5.1401863 -144.5383
964000000 -5.2233419 -145.79877
964500000 -5.3076057 -147.14308
965000000 -5.3867884 -148.52347
965500000 -5.4777222 -149.85469
966000000 -5.560297 -151.28799
966500000 -5.6438298 -152.69702
967000000 -5.7292976 -154.13403
967500000 -5.8203769 -155.63882
968000000 -5.9095311 -157.12804
968500000 -6.0012636 -158.64183
969000000 -6.0908351 -160.22447
969500000 -6.1789546 -161.78568
970000000 -6.2685742 -163.43567
970500000 -6.3565784 -165.07454
971000000 -6.4507895 -166.77899
971500000 -6.5340781 -168.47128
972000000 -6.6264653 -170.18561
972500000 -6.7072573 -171.97444
973000000 -6.7954817 -173.76538
973500000 -6.8813691 -175.65216
974000000 -6.9654474 -177.51242
974500000 -7.0478492 -179.42934
975000000 -7.1257048 178.647
975500000 -7.2071486 176.66109
976000000 -7.2817473 174.62094
976500000 -7.352191 172.58438
977000000 -7.4306436 170.52798
977500000 -7.4992776 168.38356
978000000 -7.5664029 166.28799
978500000 -7.6239715 164.10773
979000000 -7.6799102 161.9171
979500000 -7.737052 159.71797
980000000 -7.781641 157.49254
980500000 -7.8371983 155.22791
981000000 -7.8720446 152.93808
981500000 -7.9079695 150.65187
982000000 -7.9393787 148.36049
982500000 -7.9621925 146.05034
983000000 -7.9842129 143.67998
983500000 -7.997016 141.35211
984000000 -8.005887 139.02367
984500000 -8.0048218 136.65192
985000000 -7.9987354 134.32707
985500000 -7.9917078 131.95941
986000000 -7.9789352 129.59137
986500000 -7.9570494 127.26021
987000000 -7.9297466 124.90644
987500000 -7.8963599 122.65891
988000000 -7.8649149 120.31587
988500000 -7.8193221 118.0463
989000000 -7.7787027 115.83142
989500000 -7.7237091 113.63188
990000000 -7.672266 111.35305
990500000 -7.6082954 109.18365
991000000 -7.5479655 107.06322
991500000 -7.4838657 104.89141
992000000 -7.4064155 102.80363
992500000 -7.3358912 100.75653
993000000 -7.2603774 98.701027
993500000 -7.181426 96.69503
994000000 -7.0987105 94.774536
994500000 -7.0131488 92.774628
995000000 -6.9252877 90.869102
995500000 -6.851604 88.981468
996000000 -6.7659431 87.150986
996500000 -6.6686282 85.317558
997000000 -6.5828347 83.510857
997500000 -6.4930921 81.828949
998000000 -6.4024982 80.066544
998500000 -6.3166709 78.393532
999000000 -6.2236691 76.739655
999500000 -6.1357317 75.091949
1000000000 -6.0505219 73.487129
1000500000 -5.9614406 71.916145
1001000000 -5.8748188 70.393257
1001500000 -5.7847614 68.87545
1002000000 -5.6987004 67.425415
1002500000 -5.6155009 65.955093
1003000000 -5.5282369 64.544212
1003500000 -5.4515648 63.091476
1004000000 -5.369956 61.757328
1004500000 -5.2862425 60.403255
1005000000 -5.2010727 59.094837
1005500000 -5.1256351 57.795265
1006000000 -5.0521789 56.536831
1006500000 -4.9741683 55.279911
1007000000 -4.899229 54.038334
1007500000 -4.8276024 52.885693
1008000000 -4.751564 51.655048
1008500000 -4.6787887 50.53978
1009000000 -4.6119194 49.381355
1009500000 -4.5393996 48.286438
1010000000 -4.4751277 47.213028
1010500000 -4.4051948 46.134243
1011000000 -4.3407831 45.119465
1011500000 -4.2714362 44.052715
1012000000 -4.2051425 43.024582
1012500000 -4.1472111 42.000656
1013000000 -4.0838094 41.036434
1013500000 -4.0248981 40.088474
1014000000 -3.9667923 39.115387
1014500000 -3.9046111 38.194061
