!Keysight Technologies,P9371A,MY57212015,A.15.65.19
!Date: Thursday, June 30, 2022 11:18:14
!Correction: S11(C  1-Port  ) 
!S1P File: Measurement: S11:
# Hz S  dB   R 50
700000000 -1.356684 61.181995
700500000 -1.3615661 60.810925
701000000 -1.3656545 60.471653
701500000 -1.3665706 60.161884
702000000 -1.3682722 59.811024
702500000 -1.368921 59.49263
703000000 -1.3646109 59.145485
703500000 -1.370981 58.826843
704000000 -1.3724997 58.443718
704500000 -1.3723961 58.137745
705000000 -1.372416 57.781536
705500000 -1.3747497 57.487858
706000000 -1.3741667 57.118103
706500000 -1.3787659 56.768688
707000000 -1.3740553 56.428089
707500000 -1.3787649 56.11385
708000000 -1.3799328 55.732014
708500000 -1.3822602 55.389038
709000000 -1.3850309 55.026604
709500000 -1.385012 54.666698
710000000 -1.3877811 54.350468
710500000 -1.3895214 53.961498
711000000 -1.3888937 53.643478
711500000 -1.3894918 53.267178
712000000 -1.3920213 52.905056
712500000 -1.397184 52.530365
713000000 -1.3969582 52.173977
713500000 -1.3992245 51.854362
714000000 -1.4042219 51.495384
714500000 -1.4057755 51.110653
715000000 -1.4051441 50.768456
715500000 -1.4120556 50.436039
716000000 -1.4098148 50.07019
716500000 -1.4107436 49.696079
717000000 -1.4175016 49.360386
717500000 -1.4188594 48.984692
718000000 -1.4237852 48.61985
718500000 -1.423265 48.253223
719000000 -1.4315089 47.875462
719500000 -1.4350398 47.485294
720000000 -1.434051 47.16161
720500000 -1.4366834 46.772217
721000000 -1.4430736 46.427998
721500000 -1.4450294 46.061466
722000000 -1.4509887 45.702213
722500000 -1.4550427 45.311043
723000000 -1.4581285 44.984573
723500000 -1.4627707 44.616184
724000000 -1.4649127 44.230145
724500000 -1.4706018 43.870014
725000000 -1.4782059 43.515026
725500000 -1.4793553 43.163868
726000000 -1.4818314 42.795792
726500000 -1.4882699 42.451138
727000000 -1.491029 42.112865
727500000 -1.4972247 41.731434
728000000 -1.4977589 41.375175
728500000 -1.4995222 41.024403
729000000 -1.5087359 40.641857
729500000 -1.508612 40.286427
730000000 -1.5100888 39.890404
730500000 -1.5155795 39.561493
731000000 -1.5201193 39.166218
731500000 -1.525913 38.799519
732000000 -1.5253398 38.43029
732500000 -1.5278902 38.079952
733000000 -1.5330703 37.701729
733500000 -1.5358272 37.33662
734000000 -1.5410744 36.953419
734500000 -1.5430622 36.590469
735000000 -1.5431664 36.218307
735500000 -1.5484025 35.846352
736000000 -1.5499853 35.429096
736500000 -1.5551897 35.057968
737000000 -1.5574104 34.666622
737500000 -1.562071 34.303753
738000000 -1.5653073 33.943478
738500000 -1.5698884 33.518097
739000000 -1.5714161 33.165226
739500000 -1.5752506 32.775478
740000000 -1.5791562 32.370571
740500000 -1.5834745 31.992002
741000000 -1.5836684 31.618391
741500000 -1.5923784 31.232021
742000000 -1.5957948 30.828373
742500000 -1.598983 30.444786
743000000 -1.6023862 30.057381
743500000 -1.6056224 29.676554
744000000 -1.6124358 29.256746
744500000 -1.6151688 28.870428
745000000 -1.6210716 28.469366
745500000 -1.6279567 28.073547
746000000 -1.6322776 27.668945
746500000 -1.6335278 27.291878
747000000 -1.6379337 26.890366
747500000 -1.6438168 26.492481
748000000 -1.6501652 26.088367
748500000 -1.65204 25.702656
749000000 -1.6587386 25.300741
749500000 -1.6631775 24.891647
750000000 -1.669577 24.520327
750500000 -1.6713601 24.116394
751000000 -1.6771768 23.712019
751500000 -1.6800945 23.292456
752000000 -1.6887919 22.880457
752500000 -1.6910174 22.509529
753000000 -1.6975358 22.074667
753500000 -1.7031018 21.681656
754000000 -1.7069764 21.252373
754500000 -1.7132961 20.861277
755000000 -1.7213053 20.442041
755500000 -1.7247475 20.03912
756000000 -1.7315019 19.638517
756500000 -1.7384074 19.222862
757000000 -1.7424815 18.815996
757500000 -1.7480474 18.423952
758000000 -1.7544817 17.995596
758500000 -1.7597963 17.579107
759000000 -1.7679894 17.149363
759500000 -1.7721026 16.720343
760000000 -1.7783144 16.324814
760500000 -1.7849308 15.932639
761000000 -1.7911061 15.466607
761500000 -1.795963 15.067576
762000000 -1.8027563 14.667362
762500000 -1.8092684 14.232051
763000000 -1.8155118 13.801399
763500000 -1.8201954 13.379223
764000000 -1.8297148 12.961306
764500000 -1.8346146 12.539544
765000000 -1.8441352 12.125212
765500000 -1.8495539 11.695786
766000000 -1.8549092 11.26174
766500000 -1.8602226 10.842547
767000000 -1.8715338 10.425385
767500000 -1.8748903 10.015547
768000000 -1.8825549 9.5659332
768500000 -1.8900738 9.1609583
769000000 -1.8997123 8.7147942
769500000 -1.9072839 8.2858906
770000000 -1.9124238 7.8346968
770500000 -1.9214327 7.4394846
771000000 -1.9256275 6.9921312
771500000 -1.9335991 6.5539713
772000000 -1.9444215 6.1174874
772500000 -1.9551259 5.6821928
773000000 -1.9646753 5.2696147
773500000 -1.9696001 4.8077307
774000000 -1.9813213 4.3946819
774500000 -1.9914285 3.9666669
775000000 -1.9994916 3.5538292
775500000 -2.0060275 3.1432135
776000000 -2.016535 2.6915851
776500000 -2.0240021 2.296978
777000000 -2.0304132 1.8490052
777500000 -2.0388944 1.4586682
778000000 -2.0406122 1.0080054
778500000 -2.0462599 0.60072553
779000000 -2.0552619 0.13912834
779500000 -2.0629196 -0.30192059
780000000 -2.070173 -0.7306537
780500000 -2.0776165 -1.1693668
781000000 -2.0811088 -1.5833434
781500000 -2.0874288 -2.0324569
782000000 -2.094758 -2.4515402
782500000 -2.1037483 -2.9131463
783000000 -2.1110017 -3.3365295
783500000 -2.1190746 -3.799546
784000000 -2.1266708 -4.2339773
784500000 -2.1361105 -4.6754212
785000000 -2.1370406 -5.1333165
785500000 -2.1445191 -5.5483561
786000000 -2.1477079 -6.0229306
786500000 -2.1556232 -6.4631543
787000000 -2.16137 -6.8856459
787500000 -2.1660256 -7.3468246
788000000 -2.1722856 -7.8162732
788500000 -2.1769853 -8.2421007
789000000 -2.1800563 -8.686409
789500000 -2.1870332 -9.1673908
790000000 -2.1916909 -9.622736
790500000 -2.1908219 -10.0767
791000000 -2.1961973 -10.537889
791500000 -2.2036924 -11.004604
792000000 -2.2122533 -11.494467
792500000 -2.2142298 -11.952845
793000000 -2.2168822 -12.434238
793500000 -2.223465 -12.932402
794000000 -2.2275853 -13.390695
794500000 -2.2340791 -13.898311
795000000 -2.2378664 -14.377021
795500000 -2.2436006 -14.882135
796000000 -2.2517509 -15.324062
796500000 -2.256109 -15.847471
797000000 -2.2658532 -16.361134
797500000 -2.2715001 -16.837423
798000000 -2.2781024 -17.297108
798500000 -2.2797861 -17.763584
799000000 -2.289789 -18.29003
799500000 -2.2994606 -18.779814
800000000 -2.3040736 -19.291334
800500000 -2.3096826 -19.75308
801000000 -2.3173494 -20.238804
801500000 -2.3229175 -20.720169
802000000 -2.3288326 -21.223301
802500000 -2.3373713 -21.730566
803000000 -2.3427429 -22.248268
803500000 -2.3458629 -22.75428
804000000 -2.3556414 -23.208076
804500000 -2.3658428 -23.741472
805000000 -2.37272 -24.269629
805500000 -2.3766601 -24.776674
806000000 -2.3884046 -25.269762
806500000 -2.3924744 -25.797165
807000000 -2.397336 -26.262289
807500000 -2.4011414 -26.782877
808000000 -2.4128244 -27.315159
808500000 -2.4128244 -27.826469
809000000 -2.4189551 -28.343815
809500000 -2.4288828 -28.864964
810000000 -2.4299772 -29.417936
810500000 -2.4346256 -29.913366
811000000 -2.4433188 -30.462091
811500000 -2.4502628 -31.014914
812000000 -2.4591095 -31.506853
812500000 -2.4658678 -32.078884
813000000 -2.4737036 -32.597137
813500000 -2.4835432 -33.133511
814000000 -2.4895763 -33.654354
814500000 -2.4950197 -34.224373
815000000 -2.5022042 -34.740753
815500000 -2.5132232 -35.290428
816000000 -2.5193498 -35.849194
816500000 -2.5267682 -36.398586
817000000 -2.5383155 -36.928143
817500000 -2.5482628 -37.527431
818000000 -2.556206 -38.054634
818500000 -2.5663218 -38.618412
819000000 -2.5755079 -39.141468
819500000 -2.580179 -39.708244
820000000 -2.591301 -40.280582
820500000 -2.6054304 -40.832386
821000000 -2.6156268 -41.371426
821500000 -2.6218445 -41.936821
822000000 -2.6285264 -42.465347
822500000 -2.6455736 -43.026062
823000000 -2.6462646 -43.557926
823500000 -2.6609683 -44.106934
824000000 -2.6683507 -44.690037
824500000 -2.6750515 -45.20816
825000000 -2.6840045 -45.79443
825500000 -2.6905408 -46.330551
826000000 -2.6944697 -46.89349
826500000 -2.7017937 -47.426937
827000000 -2.7061908 -48.034336
827500000 -2.7103102 -48.567245
828000000 -2.7198546 -49.156075
828500000 -2.7207272 -49.687618
829000000 -2.7312789 -50.293728
829500000 -2.7438717 -50.862999
830000000 -2.7385929 -51.483238
830500000 -2.7426918 -52.016552
831000000 -2.7516806 -52.634228
831500000 -2.7560596 -53.192127
832000000 -2.7624834 -53.823875
832500000 -2.765645 -54.41906
833000000 -2.7765098 -55.03149
833500000 -2.7764745 -55.655304
834000000 -2.7811875 -56.232662
834500000 -2.7950926 -56.876732
835000000 -2.7960377 -57.44735
835500000 -2.8010778 -58.066074
836000000 -2.8108928 -58.688114
836500000 -2.8110862 -59.336346
837000000 -2.8200068 -59.980686
837500000 -2.8259335 -60.580807
838000000 -2.8318386 -61.216454
838500000 -2.8364844 -61.846668
839000000 -2.8473754 -62.462929
839500000 -2.8473909 -63.116585
840000000 -2.8575525 -63.739864
840500000 -2.8576438 -64.388741
841000000 -2.8751621 -65.013069
841500000 -2.8784385 -65.666161
842000000 -2.8842869 -66.373016
842500000 -2.8905919 -67.009415
843000000 -2.8967261 -67.629318
843500000 -2.9060769 -68.332672
844000000 -2.9078696 -68.966988
844500000 -2.9179056 -69.648109
845000000 -2.9274392 -70.296051
845500000 -2.931433 -71.00193
846000000 -2.9366288 -71.615875
846500000 -2.9444895 -72.344772
847000000 -2.9557967 -73.014717
847500000 -2.965415 -73.738297
848000000 -2.9673712 -74.41906
848500000 -2.9802346 -75.073242
849000000 -2.9844136 -75.746819
849500000 -2.9959626 -76.441208
850000000 -3.0068114 -77.145638
850500000 -3.0138083 -77.847878
851000000 -3.0173481 -78.561668
851500000 -3.0291641 -79.28035
852000000 -3.037359 -79.967728
852500000 -3.0424731 -80.670441
853000000 -3.0572743 -81.372276
853500000 -3.0712559 -82.12812
854000000 -3.0778964 -82.8218
854500000 -3.0901811 -83.584595
855000000 -3.095964 -84.276978
855500000 -3.1101704 -84.997536
856000000 -3.1188927 -85.73455
856500000 -3.134666 -86.463875
857000000 -3.1452789 -87.15065
857500000 -3.1543503 -87.903938
858000000 -3.1697721 -88.627518
858500000 -3.1825709 -89.386185
859000000 -3.1969671 -90.088799
859500000 -3.2084756 -90.828072
860000000 -3.2256856 -91.583557
860500000 -3.2367673 -92.290985
861000000 -3.2528679 -93.001045
861500000 -3.2672219 -93.713913
862000000 -3.2720137 -94.461792
862500000 -3.2901103 -95.164345
863000000 -3.2981944 -95.874275
863500000 -3.3123302 -96.627296
864000000 -3.3259006 -97.34536
864500000 -3.3354905 -98.086418
865000000 -3.3425941 -98.826805
865500000 -3.3552387 -99.556496
866000000 -3.3650801 -100.27544
866500000 -3.3735919 -101.03381
867000000 -3.3816054 -101.81242
867500000 -3.390451 -102.53587
868000000 -3.4036448 -103.29881
868500000 -3.4173882 -104.04519
869000000 -3.4220436 -104.80846
869500000 -3.4289942 -105.57031
870000000 -3.44468 -106.31035
870500000 -3.4457407 -107.08298
871000000 -3.4627297 -107.87519
871500000 -3.4679112 -108.62826
872000000 -3.4805541 -109.38284
872500000 -3.4849296 -110.1376
873000000 -3.4936519 -110.91683
873500000 -3.4995327 -111.69543
874000000 -3.5072227 -112.49632
874500000 -3.5120783 -113.28688
875000000 -3.5213487 -114.07056
875500000 -3.5300932 -114.87196
876000000 -3.5382738 -115.68443
876500000 -3.5426161 -116.45989
877000000 -3.553714 -117.29368
877500000 -3.5573561 -118.12361
878000000 -3.5667849 -118.92459
878500000 -3.5723026 -119.74213
879000000 -3.5801389 -120.53677
879500000 -3.5903711 -121.3615
880000000 -3.5975351 -122.18683
880500000 -3.6037219 -123.01679
881000000 -3.6136854 -123.82492
881500000 -3.6279848 -124.65619
882000000 -3.6310885 -125.48196
882500000 -3.6412966 -126.32407
883000000 -3.651489 -127.13374
883500000 -3.6564445 -127.95272
884000000 -3.6616964 -128.82071
884500000 -3.6698031 -129.61552
885000000 -3.6803033 -130.46294
885500000 -3.6811576 -131.27834
886000000 -3.6881628 -132.15125
886500000 -3.6958706 -132.95007
887000000 -3.7006736 -133.81503
887500000 -3.7087901 -134.67699
888000000 -3.7078214 -135.54355
888500000 -3.7142253 -136.40446
889000000 -3.7246504 -137.27818
889500000 -3.7238376 -138.12448
890000000 -3.7342961 -139.0121
890500000 -3.739917 -139.82489
891000000 -3.7464032 -140.70578
891500000 -3.7501807 -141.57378
892000000 -3.7547648 -142.47095
892500000 -3.7640498 -143.35956
893000000 -3.7698941 -144.21106
893500000 -3.7739935 -145.11082
894000000 -3.7788875 -145.95303
894500000 -3.7850521 -146.85931
895000000 -3.787631 -147.73474
895500000 -3.7942421 -148.63918
896000000 -3.7968707 -149.50137
896500000 -3.7994459 -150.38374
897000000 -3.8076568 -151.29863
897500000 -3.8126659 -152.1691
898000000 -3.8161886 -153.01584
898500000 -3.8174288 -153.9332
899000000 -3.8174655 -154.84393
899500000 -3.8277609 -155.78371
900000000 -3.8316648 -156.67044
900500000 -3.8286324 -157.55632
901000000 -3.8302963 -158.45602
901500000 -3.8432913 -159.36877
902000000 -3.8422568 -160.23976
902500000 -3.8403583 -161.16568
903000000 -3.8488026 -162.07089
903500000 -3.8531494 -162.98888
904000000 -3.8532255 -163.91641
904500000 -3.8556817 -164.86118
905000000 -3.8686216 -165.73828
905500000 -3.8716016 -166.66098
906000000 -3.8772047 -167.58679
906500000 -3.8770738 -168.46892
907000000 -3.8792901 -169.43376
907500000 -3.885335 -170.2961
908000000 -3.8876703 -171.19362
908500000 -3.8920352 -172.08203
909000000 -3.8978658 -172.98964
909500000 -3.900439 -173.90129
910000000 -3.8987715 -174.76537
910500000 -3.8993213 -175.7019
911000000 -3.9088545 -176.58408
911500000 -3.9056647 -177.50211
912000000 -3.9057846 -178.36864
912500000 -3.9029596 -179.22102
913000000 -3.9062653 179.84731
913500000 -3.897213 178.96135
914000000 -3.8957372 178.06441
914500000 -3.892621 177.16051
915000000 -3.8922994 176.27168
915500000 -3.8895247 175.35461
916000000 -3.8842409 174.46799
916500000 -3.879077 173.55606
917000000 -3.8687408 172.65837
917500000 -3.8715265 171.72112
918000000 -3.8616488 170.81705
918500000 -3.8582926 169.90916
919000000 -3.8531847 168.98691
919500000 -3.8460841 168.05347
920000000 -3.8418157 167.16788
920500000 -3.84023 166.23407
921000000 -3.8337181 165.29282
921500000 -3.8286777 164.35263
922000000 -3.8257055 163.4604
922500000 -3.8215377 162.55595
923000000 -3.8122671 161.64798
923500000 -3.808027 160.73076
924000000 -3.801528 159.83461
924500000 -3.7961345 158.89917
925000000 -3.786725 157.96547
925500000 -3.7867095 157.06487
926000000 -3.7801704 156.16255
926500000 -3.7743039 155.23439
927000000 -3.765069 154.33142
927500000 -3.7576208 153.40674
928000000 -3.7542136 152.49199
928500000 -3.7463031 151.59895
929000000 -3.7385013 150.65776
929500000 -3.7338963 149.7681
930000000 -3.725174 148.84644
930500000 -3.7215817 147.96646
931000000 -3.7105284 147.05843
931500000 -3.707598 146.15933
932000000 -3.7022712 145.23244
932500000 -3.6942904 144.36151
933000000 -3.6890357 143.42543
933500000 -3.680078 142.53477
934000000 -3.6767068 141.64893
934500000 -3.6680403 140.72183
935000000 -3.6686034 139.85136
935500000 -3.660567 138.94533
936000000 -3.649703 138.06993
936500000 -3.648622 137.18192
937000000 -3.6401217 136.27304
937500000 -3.6338344 135.41179
938000000 -3.6282089 134.55865
938500000 -3.6202579 133.68816
939000000 -3.6157579 132.78641
939500000 -3.6076634 131.93718
940000000 -3.5996687 131.10635
940500000 -3.5938654 130.22322
941000000 -3.5806623 129.39267
941500000 -3.5757399 128.50925
942000000 -3.5672374 127.67989
942500000 -3.5576046 126.81256
943000000 -3.5479047 125.94604
943500000 -3.5421071 125.10897
944000000 -3.5502408 124.28046
944500000 -3.5248232 123.41899
945000000 -3.5173526 122.57411
945500000 -3.5103407 121.73646
946000000 -3.4988658 120.87964
946500000 -3.4905064 120.04093
947000000 -3.4855065 119.18526
947500000 -3.4743636 118.35092
948000000 -3.4674335 117.54489
948500000 -3.4592919 116.719
949000000 -3.4524703 115.8783
949500000 -3.4433768 115.07518
950000000 -3.432677 114.26501
950500000 -3.4272683 113.44408
951000000 -3.4173043 112.63232
951500000 -3.4116259 111.82841
952000000 -3.3993003 111.03732
952500000 -3.3931174 110.22015
953000000 -3.384444 109.41064
953500000 -3.3753757 108.62283
954000000 -3.3694794 107.86057
954500000 -3.3563354 107.08395
955000000 -3.3456993 106.27531
955500000 -3.3371294 105.49191
956000000 -3.3257134 104.73499
956500000 -3.322454 103.94267
957000000 -3.308145 103.18095
957500000 -3.2981889 102.4187
958000000 -3.2895789 101.64655
958500000 -3.2765341 100.85638
959000000 -3.2653029 100.10749
959500000 -3.2546237 99.340408
960000000 -3.2429571 98.58976
960500000 -3.2353337 97.818428
961000000 -3.2227619 97.061356
961500000 -3.2082894 96.290932
962000000 -3.2006655 95.594276
962500000 -3.1882148 94.804512
963000000 -3.1805682 94.068321
963500000 -3.1693382 93.336197
964000000 -3.1538303 92.577782
964500000 -3.1415899 91.827011
965000000 -3.1374619 91.095535
965500000 -3.1259325 90.373375
966000000 -3.1124072 89.632874
966500000 -3.1018355 88.930634
967000000 -3.0906098 88.158287
967500000 -3.0778747 87.454857
968000000 -3.0672994 86.6875
968500000 -3.0555696 85.980713
969000000 -3.0497131 85.263695
969500000 -3.0369642 84.569229
970000000 -3.0234551 83.83149
970500000 -3.0145986 83.149483
971000000 -3.0025375 82.409142
971500000 -2.9917936 81.730492
972000000 -2.9843082 81.025627
972500000 -2.9743984 80.300446
973000000 -2.9631088 79.5924
973500000 -2.9569457 78.93647
974000000 -2.9398363 78.219276
974500000 -2.9346697 77.555786
975000000 -2.9234705 76.842224
975500000 -2.9077497 76.166748
976000000 -2.9038191 75.488991
976500000 -2.8880029 74.798004
977000000 -2.8831367 74.119194
977500000 -2.87165 73.455643
978000000 -2.8574581 72.783066
978500000 -2.8491042 72.149368
979000000 -2.8424211 71.448402
979500000 -2.834372 70.794579
980000000 -2.8203828 70.140541
980500000 -2.8162236 69.436691
981000000 -2.8028371 68.788559
981500000 -2.7936294 68.142693
982000000 -2.7857625 67.486412
982500000 -2.7755282 66.835625
983000000 -2.7680087 66.172104
983500000 -2.7557254 65.544884
984000000 -2.7460215 64.900909
984500000 -2.7399428 64.287773
985000000 -2.7302692 63.637753
985500000 -2.7191021 62.998894
986000000 -2.7120457 62.37809
986500000 -2.6987529 61.742207
987000000 -2.6904898 61.110462
987500000 -2.6787302 60.507545
988000000 -2.6746013 59.86137
988500000 -2.6610265 59.230473
989000000 -2.6511524 58.615162
989500000 -2.6460721 58.003277
990000000 -2.6365397 57.380234
990500000 -2.6283534 56.758316
991000000 -2.6154566 56.158875
991500000 -2.6069176 55.545654
992000000 -2.5992804 54.954765
992500000 -2.5925765 54.366219
993000000 -2.5847244 53.761417
993500000 -2.5726726 53.178349
994000000 -2.5672605 52.57745
994500000 -2.554364 51.96999
995000000 -2.5476947 51.378803
995500000 -2.5421226 50.784538
996000000 -2.5358596 50.213112
996500000 -2.5226896 49.63699
997000000 -2.5149517 49.019135
997500000 -2.5084796 48.448494
998000000 -2.4954479 47.903263
998500000 -2.4905331 47.324966
999000000 -2.4857166 46.744839
999500000 -2.4753351 46.168217
1000000000 -2.4649987 45.599197
1000500000 -2.4532542 45.023521
1001000000 -2.447969 44.500458
1001500000 -2.437212 43.876606
1002000000 -2.4350681 43.366432
1002500000 -2.4257679 42.79258
1003000000 -2.4157593 42.206821
1003500000 -2.4125671 41.648659
1004000000 -2.4030929 41.110661
1004500000 -2.3937581 40.548161
1005000000 -2.3875239 40.025795
1005500000 -2.3774056 39.478355
1006000000 -2.3727441 38.910671
1006500000 -2.3649058 38.368469
1007000000 -2.3580816 37.816929
1007500000 -2.3536301 37.30294
1008000000 -2.3445961 36.698513
1008500000 -2.3351891 36.193726
1009000000 -2.3317525 35.669632
1009500000 -2.3195798 35.115601
1010000000 -2.3174493 34.606583
1010500000 -2.306118 34.051971
1011000000 -2.3024895 33.547905
1011500000 -2.2914958 33.029217
1012000000 -2.2850962 32.481236
1012500000 -2.2789178 31.948671
1013000000 -2.2714431 31.443449
1013500000 -2.2629421 30.913252
1014000000 -2.2605367 30.414579
1014500000 -2.2523444 29.869467
1015000000 -2.2488387 29.327917
1015500000 -2.2481041 28.844269
1016000000 -2.2307522 28.331268
1016500000 -2.2269707 27.834091
