!Keysight Technologies,P9371A,MY57212015,A.15.65.19
!Date: Thursday, June 30, 2022 13:47:55
!Correction: S11(C  1-Port  ) 
!S1P File: Measurement: S11:
# Hz S  dB   R 50
700000000 -1.3256912 62.277153
700500000 -1.3319995 61.90152
701000000 -1.3311037 61.558678
701500000 -1.3327947 61.256321
702000000 -1.3328946 60.905891
702500000 -1.3349618 60.57016
703000000 -1.332642 60.216949
703500000 -1.3391443 59.888088
704000000 -1.3440896 59.515831
704500000 -1.3408741 59.185379
705000000 -1.3428524 58.825695
705500000 -1.3448929 58.523991
706000000 -1.3477231 58.132793
706500000 -1.3498179 57.787991
707000000 -1.3475205 57.434856
707500000 -1.3528244 57.094341
708000000 -1.354619 56.732731
708500000 -1.3613046 56.388996
709000000 -1.3633862 56.00877
709500000 -1.3626935 55.64349
710000000 -1.368275 55.313145
710500000 -1.3695011 54.929108
711000000 -1.370959 54.594688
711500000 -1.3722725 54.240681
712000000 -1.3793317 53.853443
712500000 -1.3779169 53.491989
713000000 -1.3824524 53.144646
713500000 -1.3855056 52.76009
714000000 -1.3899254 52.433342
714500000 -1.3926598 52.058712
715000000 -1.3937279 51.679424
715500000 -1.398114 51.343536
716000000 -1.3968261 50.968052
716500000 -1.3989912 50.616726
717000000 -1.4067804 50.257011
717500000 -1.4071516 49.876755
718000000 -1.4114468 49.479675
718500000 -1.4103435 49.132992
719000000 -1.4159361 48.752701
719500000 -1.4223645 48.353863
720000000 -1.42638 48.013988
720500000 -1.4285347 47.637749
721000000 -1.4375228 47.267952
721500000 -1.4376312 46.879532
722000000 -1.4424425 46.51963
722500000 -1.447616 46.15184
723000000 -1.4535375 45.782532
723500000 -1.4584838 45.434566
724000000 -1.4619833 45.046791
724500000 -1.462227 44.65704
725000000 -1.4746387 44.294437
725500000 -1.4750763 43.930641
726000000 -1.475768 43.534054
726500000 -1.4841926 43.180645
727000000 -1.4870827 42.83408
727500000 -1.4938922 42.45203
728000000 -1.4964375 42.076603
728500000 -1.4982165 41.711437
729000000 -1.509819 41.320988
729500000 -1.5082072 40.941959
730000000 -1.5123558 40.557644
730500000 -1.5176442 40.197617
731000000 -1.5232657 39.804214
731500000 -1.5267922 39.420017
732000000 -1.5279285 39.036011
732500000 -1.5330585 38.67514
733000000 -1.5375669 38.298641
733500000 -1.5419623 37.911598
734000000 -1.5462042 37.531555
734500000 -1.5553068 37.125183
735000000 -1.5548882 36.769817
735500000 -1.563212 36.37635
736000000 -1.566033 35.96516
736500000 -1.5677245 35.593266
737000000 -1.573907 35.203896
737500000 -1.5775497 34.823307
738000000 -1.5785049 34.43819
738500000 -1.5891731 34.035095
739000000 -1.5896654 33.654217
739500000 -1.5941265 33.24258
740000000 -1.599176 32.83287
740500000 -1.6036701 32.48148
741000000 -1.6032249 32.068058
741500000 -1.6121792 31.670574
742000000 -1.6184334 31.267902
742500000 -1.6197107 30.900158
743000000 -1.6217213 30.501232
743500000 -1.6277621 30.098656
744000000 -1.6326561 29.679157
744500000 -1.635298 29.297689
745000000 -1.637765 28.861485
745500000 -1.6488357 28.462429
746000000 -1.6523134 28.056593
746500000 -1.6573694 27.657753
747000000 -1.6627535 27.257452
747500000 -1.6669327 26.850819
748000000 -1.6710179 26.441048
748500000 -1.675981 26.057972
749000000 -1.681174 25.638767
749500000 -1.6831565 25.238823
750000000 -1.6903667 24.83943
750500000 -1.6925178 24.434538
751000000 -1.6980263 24.02112
751500000 -1.7053721 23.609116
752000000 -1.7090876 23.182245
752500000 -1.7127776 22.786583
753000000 -1.7172432 22.356049
753500000 -1.7232202 21.965487
754000000 -1.7263085 21.525948
754500000 -1.7332655 21.127888
755000000 -1.7357116 20.701069
755500000 -1.7423732 20.302517
756000000 -1.7441134 19.893526
756500000 -1.7489363 19.465006
757000000 -1.7497588 19.059486
757500000 -1.7553161 18.637249
758000000 -1.7618002 18.196341
758500000 -1.7636178 17.770411
759000000 -1.7716258 17.327452
759500000 -1.7735467 16.884367
760000000 -1.7768281 16.468685
760500000 -1.7811362 16.062977
761000000 -1.7897675 15.588716
761500000 -1.7919676 15.154393
762000000 -1.7937266 14.727993
762500000 -1.8003953 14.274053
763000000 -1.8050661 13.854336
763500000 -1.813283 13.427732
764000000 -1.818977 12.982427
764500000 -1.8220057 12.550373
765000000 -1.8246095 12.092118
765500000 -1.8320472 11.667973
766000000 -1.8388556 11.224566
766500000 -1.8398535 10.811735
767000000 -1.8466539 10.344083
767500000 -1.8503699 9.9011345
768000000 -1.8559541 9.4426146
768500000 -1.8588506 8.9958563
769000000 -1.8665383 8.544673
769500000 -1.8718659 8.0900335
770000000 -1.8778192 7.6509962
770500000 -1.8832426 7.1862607
771000000 -1.886187 6.7428403
771500000 -1.8887688 6.2537165
772000000 -1.8972747 5.8316374
772500000 -1.9035571 5.3256469
773000000 -1.9108528 4.8866134
773500000 -1.9119956 4.4161177
774000000 -1.9238424 3.9495237
774500000 -1.9293749 3.4982147
775000000 -1.9356425 3.0319808
775500000 -1.940593 2.5641029
776000000 -1.9491907 2.0895364
776500000 -1.953856 1.6492436
777000000 -1.9612787 1.1749328
777500000 -1.9686725 0.72356796
778000000 -1.9730912 0.2535494
778500000 -1.9789082 -0.18520857
779000000 -1.9832417 -0.70149511
779500000 -1.9925587 -1.1565031
780000000 -1.997894 -1.6444856
780500000 -2.0047612 -2.1201797
781000000 -2.0064697 -2.5792255
781500000 -2.0165317 -3.0734317
782000000 -2.0241647 -3.5127351
782500000 -2.0325959 -4.0144329
783000000 -2.0381534 -4.5166922
783500000 -2.0447457 -4.9883952
784000000 -2.0541747 -5.4678173
784500000 -2.0612612 -5.9503622
785000000 -2.0640647 -6.4207306
785500000 -2.0712593 -6.9171844
786000000 -2.0789146 -7.4125037
786500000 -2.0896082 -7.8968873
787000000 -2.0966523 -8.3870153
787500000 -2.1014624 -8.8552971
788000000 -2.1079447 -9.3760099
788500000 -2.115304 -9.8438864
789000000 -2.1201029 -10.33476
789500000 -2.1311984 -10.85995
790000000 -2.1328743 -11.361941
790500000 -2.1410854 -11.854547
791000000 -2.1449757 -12.34688
791500000 -2.1586936 -12.813926
792000000 -2.1659148 -13.357771
792500000 -2.1732259 -13.877054
793000000 -2.1799283 -14.404741
793500000 -2.1846995 -14.89715
794000000 -2.1961792 -15.391192
794500000 -2.2060823 -15.9085
795000000 -2.2135146 -16.44425
795500000 -2.2218466 -16.958366
796000000 -2.2295291 -17.424168
796500000 -2.2422512 -17.98563
797000000 -2.2531137 -18.508566
797500000 -2.261045 -19.024179
798000000 -2.2714825 -19.546898
798500000 -2.2790956 -20.036205
799000000 -2.2866442 -20.588865
799500000 -2.3035202 -21.122927
800000000 -2.3115649 -21.635235
800500000 -2.3184812 -22.147497
801000000 -2.3348696 -22.628948
801500000 -2.34852 -23.215504
802000000 -2.3582954 -23.715073
802500000 -2.3660719 -24.240803
803000000 -2.3862152 -24.756523
803500000 -2.3938618 -25.271416
804000000 -2.4073396 -25.820282
804500000 -2.4206886 -26.341553
805000000 -2.4288924 -26.903883
805500000 -2.4477983 -27.394136
806000000 -2.4601202 -27.909822
806500000 -2.4735932 -28.442776
807000000 -2.484623 -28.908369
807500000 -2.4959831 -29.429268
808000000 -2.5186601 -29.981703
808500000 -2.5230603 -30.486727
809000000 -2.5369585 -31.017679
809500000 -2.5541737 -31.551243
810000000 -2.5548863 -32.127048
810500000 -2.5701854 -32.575207
811000000 -2.5890901 -33.111488
811500000 -2.5976076 -33.621162
812000000 -2.6141307 -34.1213
812500000 -2.627728 -34.667622
813000000 -2.6381361 -35.166969
813500000 -2.652266 -35.722294
814000000 -2.6645558 -36.215763
814500000 -2.6750011 -36.799309
815000000 -2.6858857 -37.262558
815500000 -2.7019634 -37.799862
816000000 -2.7134311 -38.316353
816500000 -2.7270722 -38.858227
817000000 -2.7376063 -39.392151
817500000 -2.7553341 -39.926155
818000000 -2.7638128 -40.458164
818500000 -2.7772951 -40.971607
819000000 -2.7920749 -41.481438
819500000 -2.8003113 -42.041733
820000000 -2.815593 -42.54834
820500000 -2.8279271 -43.110725
821000000 -2.8402948 -43.631241
821500000 -2.8536241 -44.164955
822000000 -2.8643098 -44.681461
822500000 -2.8842108 -45.223164
823000000 -2.8864846 -45.733631
823500000 -2.9081957 -46.227596
824000000 -2.9197276 -46.78952
824500000 -2.931792 -47.282646
825000000 -2.9421372 -47.82444
825500000 -2.9545953 -48.348804
826000000 -2.9619408 -48.856293
826500000 -2.9762971 -49.371567
827000000 -2.9804835 -49.916748
827500000 -2.9901505 -50.43314
828000000 -3.0017447 -50.962467
828500000 -3.0063634 -51.47736
829000000 -3.0143886 -51.999233
829500000 -3.0314364 -52.547474
830000000 -3.0293334 -53.100986
830500000 -3.0389194 -53.606628
831000000 -3.0461838 -54.151405
831500000 -3.0511489 -54.666027
832000000 -3.0610838 -55.277679
832500000 -3.0623219 -55.807411
833000000 -3.0694323 -56.368538
833500000 -3.077647 -56.928299
834000000 -3.0803916 -57.472786
834500000 -3.0892847 -58.066555
835000000 -3.0944667 -58.608707
835500000 -3.098964 -59.182537
836000000 -3.110167 -59.767517
836500000 -3.1080313 -60.375698
837000000 -3.1180961 -60.937775
837500000 -3.1247187 -61.514923
838000000 -3.129365 -62.107334
838500000 -3.1349232 -62.697948
839000000 -3.1446466 -63.265877
839500000 -3.1451256 -63.86591
840000000 -3.1599348 -64.466255
840500000 -3.1589775 -65.061493
841000000 -3.1753912 -65.621849
841500000 -3.1808484 -66.217575
842000000 -3.1811991 -66.851334
842500000 -3.1856079 -67.446838
843000000 -3.1946924 -68.01403
843500000 -3.1997702 -68.649033
844000000 -3.2049587 -69.236252
844500000 -3.2109611 -69.857086
845000000 -3.2200902 -70.478577
845500000 -3.2190506 -71.155426
846000000 -3.2224224 -71.729744
846500000 -3.2279496 -72.387848
847000000 -3.2368512 -73.041412
847500000 -3.247072 -73.66861
848000000 -3.2510374 -74.311501
848500000 -3.2617409 -74.926285
849000000 -3.2689521 -75.535141
849500000 -3.2769635 -76.186752
850000000 -3.283494 -76.855354
850500000 -3.2899704 -77.476929
851000000 -3.2933655 -78.117371
851500000 -3.3029442 -78.784073
852000000 -3.3061862 -79.3927
852500000 -3.3121684 -80.078705
853000000 -3.3180633 -80.734329
853500000 -3.3342848 -81.386078
854000000 -3.3399684 -82.052429
854500000 -3.3428288 -82.731117
855000000 -3.3472168 -83.380371
855500000 -3.3583355 -84.046585
856000000 -3.3663402 -84.758644
856500000 -3.3795781 -85.379341
857000000 -3.3839762 -86.049507
857500000 -3.3911185 -86.736069
858000000 -3.4019866 -87.425194
858500000 -3.4137173 -88.096199
859000000 -3.4149311 -88.781067
859500000 -3.4273474 -89.462502
860000000 -3.4380965 -90.16552
860500000 -3.442029 -90.811615
861000000 -3.4539826 -91.478226
861500000 -3.4579589 -92.16407
862000000 -3.4635556 -92.860481
862500000 -3.4698117 -93.540077
863000000 -3.4794335 -94.227043
863500000 -3.4847674 -94.918953
864000000 -3.4905028 -95.656807
864500000 -3.4999585 -96.338585
865000000 -3.5047059 -97.039856
865500000 -3.5110617 -97.758018
866000000 -3.5172842 -98.461174
866500000 -3.5267315 -99.202553
867000000 -3.529825 -99.942894
867500000 -3.5394275 -100.63631
868000000 -3.5502188 -101.37426
868500000 -3.5628846 -102.10256
869000000 -3.5672557 -102.82524
869500000 -3.570941 -103.56578
870000000 -3.5828223 -104.27861
870500000 -3.5810604 -105.00317
871000000 -3.5985448 -105.77295
871500000 -3.5995007 -106.50892
872000000 -3.6107192 -107.22499
872500000 -3.6169314 -107.97599
873000000 -3.630348 -108.72732
873500000 -3.6334093 -109.47203
874000000 -3.637882 -110.25581
874500000 -3.6499579 -111.00607
875000000 -3.6499746 -111.77261
875500000 -3.6607738 -112.51508
876000000 -3.6670513 -113.30228
876500000 -3.675276 -114.0693
877000000 -3.6816981 -114.85627
877500000 -3.6892281 -115.63728
878000000 -3.6958625 -116.41837
878500000 -3.7019038 -117.20315
879000000 -3.7135913 -117.96967
879500000 -3.7227237 -118.78151
880000000 -3.7342956 -119.56042
880500000 -3.7384038 -120.38329
881000000 -3.7489941 -121.15704
881500000 -3.7591169 -121.96645
882000000 -3.7678626 -122.74913
882500000 -3.7768841 -123.56397
883000000 -3.7848246 -124.33624
883500000 -3.7970245 -125.12927
884000000 -3.8014586 -125.94655
884500000 -3.8148725 -126.73164
885000000 -3.8234909 -127.55167
885500000 -3.8306766 -128.34041
886000000 -3.8379896 -129.15509
886500000 -3.8470421 -129.96442
887000000 -3.8569405 -130.77428
887500000 -3.8637187 -131.59178
888000000 -3.8675997 -132.40773
888500000 -3.8774176 -133.24002
889000000 -3.8856745 -134.05704
889500000 -3.8906984 -134.87338
890000000 -3.8997006 -135.69048
890500000 -3.9070499 -136.49667
891000000 -3.9119675 -137.3548
891500000 -3.9181507 -138.16667
892000000 -3.9253273 -139.02803
892500000 -3.9369054 -139.8591
893000000 -3.9415631 -140.70161
893500000 -3.946743 -141.56476
894000000 -3.9514372 -142.36508
894500000 -3.9595683 -143.21675
895000000 -3.9570787 -144.08929
895500000 -3.9649193 -144.96556
896000000 -3.9719777 -145.77452
896500000 -3.9755673 -146.62808
897000000 -3.9840281 -147.51851
897500000 -3.982805 -148.38535
898000000 -3.989706 -149.22504
898500000 -3.9897461 -150.11423
899000000 -3.9920137 -150.97108
899500000 -3.998982 -151.90527
900000000 -4.0007291 -152.77441
900500000 -4.0022769 -153.6581
901000000 -4.0044208 -154.554
901500000 -4.0140362 -155.4556
902000000 -4.0147185 -156.31114
902500000 -4.0131159 -157.22195
903000000 -4.0187802 -158.15889
903500000 -4.025106 -159.0486
904000000 -4.0276403 -159.97906
904500000 -4.0279613 -160.87585
905000000 -4.0355992 -161.78574
905500000 -4.0435333 -162.71187
906000000 -4.053206 -163.63206
906500000 -4.0532346 -164.54623
907000000 -4.0575485 -165.50992
907500000 -4.0699105 -166.36494
908000000 -4.0705657 -167.28166
908500000 -4.0793676 -168.15469
909000000 -4.0778074 -169.048
909500000 -4.0882931 -169.97968
910000000 -4.0862279 -170.86749
910500000 -4.0851893 -171.84486
911000000 -4.094552 -172.74559
911500000 -4.0941534 -173.68466
912000000 -4.094523 -174.58063
912500000 -4.1042914 -175.4726
913000000 -4.1013036 -176.42036
913500000 -4.1016746 -177.34221
914000000 -4.1031485 -178.27539
914500000 -4.1000271 -179.20961
915000000 -4.1056557 179.89815
915500000 -4.1135626 178.94492
916000000 -4.1105642 178.01828
916500000 -4.1144767 177.0724
917000000 -4.1115479 176.16248
917500000 -4.1168656 175.24425
918000000 -4.1138806 174.3102
918500000 -4.1121016 173.37595
919000000 -4.1146741 172.42976
919500000 -4.1121426 171.50746
920000000 -4.1172996 170.59476
920500000 -4.114892 169.65717
921000000 -4.116653 168.72118
921500000 -4.1155682 167.77489
922000000 -4.110806 166.86201
922500000 -4.1148858 165.96489
923000000 -4.1139784 165.03325
923500000 -4.1126132 164.11548
924000000 -4.1094389 163.16751
924500000 -4.1044626 162.2628
925000000 -4.0966454 161.31644
925500000 -4.0964422 160.40904
926000000 -4.0922561 159.47128
926500000 -4.0889192 158.55371
927000000 -4.0829229 157.62849
927500000 -4.0761762 156.71103
928000000 -4.0711045 155.75488
928500000 -4.0669236 154.8075
929000000 -4.0548391 153.85971
929500000 -4.0533395 152.93417
930000000 -4.0464568 151.99969
930500000 -4.0437093 151.10147
931000000 -4.0339866 150.14648
931500000 -4.0322905 149.21683
932000000 -4.0269594 148.25084
932500000 -4.0226564 147.3188
933000000 -4.016366 146.39639
933500000 -4.0085688 145.45529
934000000 -4.0064445 144.51195
934500000 -4.0003252 143.55672
935000000 -3.9985118 142.66203
935500000 -3.9927328 141.72765
936000000 -3.9872897 140.80719
936500000 -3.9886599 139.87532
937000000 -3.97699 138.95113
937500000 -3.9752829 138.056
938000000 -3.9676757 137.15849
938500000 -3.9626489 136.25009
939000000 -3.9563129 135.34779
939500000 -3.9498177 134.45305
940000000 -3.9414604 133.58688
940500000 -3.9346995 132.66832
941000000 -3.9230821 131.78191
941500000 -3.9168503 130.86726
942000000 -3.9054954 129.9904
942500000 -3.896543 129.0986
943000000 -3.8895817 128.19334
943500000 -3.8773885 127.31452
944000000 -3.8736653 126.50203
944500000 -3.8601534 125.51291
945000000 -3.8490102 124.61935
945500000 -3.8495471 123.77079
946000000 -3.8352022 122.84915
946500000 -3.8265281 121.95639
947000000 -3.8174684 121.05834
947500000 -3.8096354 120.15564
948000000 -3.8009956 119.31094
948500000 -3.7940207 118.43378
949000000 -3.7871921 117.55896
949500000 -3.7770658 116.73093
950000000 -3.76895 115.84128
950500000 -3.7616246 114.97662
951000000 -3.7532966 114.10941
951500000 -3.7478828 113.26129
952000000 -3.7372661 112.41721
952500000 -3.732404 111.56544
953000000 -3.7249207 110.74571
953500000 -3.7179444 109.91735
954000000 -3.7086687 109.05192
954500000 -3.6995921 108.26228
955000000 -3.6889865 107.42854
955500000 -3.6824043 106.6129
956000000 -3.6701944 105.81779
956500000 -3.6662703 105.00426
957000000 -3.6531126 104.2135
957500000 -3.6446059 103.38084
958000000 -3.6374369 102.60127
958500000 -3.6256435 101.78871
959000000 -3.6128411 100.99818
959500000 -3.6053348 100.22448
960000000 -3.5945737 99.443405
960500000 -3.5779777 98.648071
961000000 -3.5693927 97.889595
961500000 -3.5581481 97.094559
962000000 -3.5475326 96.358788
962500000 -3.5343702 95.551514
963000000 -3.5223081 94.81488
963500000 -3.5075307 94.063454
964000000 -3.498831 93.290314
964500000 -3.4841936 92.499123
965000000 -3.4724517 91.77935
965500000 -3.4601276 91.038857
966000000 -3.4478223 90.292671
966500000 -3.4288957 89.557991
967000000 -3.4185259 88.760513
967500000 -3.4036365 88.05127
968000000 -3.3896768 87.320816
968500000 -3.3765368 86.547035
969000000 -3.3595591 85.847572
969500000 -3.348429 85.093948
970000000 -3.3343015 84.346031
970500000 -3.3176966 83.64624
971000000 -3.30198 82.882851
971500000 -3.2881813 82.197113
972000000 -3.2718933 81.443779
972500000 -3.2594488 80.730492
973000000 -3.2489076 80.012283
973500000 -3.2309873 79.323929
974000000 -3.2097497 78.615936
974500000 -3.2026737 77.895622
975000000 -3.1853137 77.193611
975500000 -3.1697528 76.483589
976000000 -3.1556969 75.789612
976500000 -3.1396444 75.089981
977000000 -3.1276195 74.394371
977500000 -3.1073217 73.701805
978000000 -3.0939827 72.986855
978500000 -3.0791848 72.342377
979000000 -3.0674849 71.601608
979500000 -3.0522807 70.930489
980000000 -3.0372212 70.250626
980500000 -3.0266573 69.551445
981000000 -3.0067804 68.872597
981500000 -2.9946594 68.164055
982000000 -2.9796085 67.486938
982500000 -2.967324 66.82872
983000000 -2.9558489 66.135399
983500000 -2.9443386 65.45002
984000000 -2.9268343 64.778458
984500000 -2.9171009 64.161934
985000000 -2.9034646 63.492653
985500000 -2.8888941 62.824532
986000000 -2.8774326 62.146553
986500000 -2.860471 61.514946
987000000 -2.8479714 60.844097
987500000 -2.8358269 60.230515
988000000 -2.826905 59.527264
988500000 -2.8118887 58.871197
989000000 -2.801403 58.25209
989500000 -2.7909038 57.621101
990000000 -2.7775116 56.969627
990500000 -2.7645895 56.327747
991000000 -2.7530968 55.705994
991500000 -2.7439487 55.064404
992000000 -2.731601 54.446102
992500000 -2.72453 53.818775
993000000 -2.7140043 53.213387
993500000 -2.7015555 52.631104
994000000 -2.6930311 52.016655
994500000 -2.6799512 51.378757
995000000 -2.6694462 50.772663
995500000 -2.6615844 50.16782
996000000 -2.6516004 49.559364
996500000 -2.6367564 48.978764
997000000 -2.6250196 48.355812
997500000 -2.6158855 47.797756
998000000 -2.60306 47.201294
998500000 -2.5948319 46.614845
999000000 -2.588563 46.038605
999500000 -2.5742545 45.468769
1000000000 -2.5648358 44.856403
1000500000 -2.5485342 44.277718
1001000000 -2.5425279 43.73333
1001500000 -2.5297761 43.135235
1002000000 -2.5210953 42.599979
1002500000 -2.5119803 41.997833
1003000000 -2.5005608 41.439442
1003500000 -2.4931066 40.83532
1004000000 -2.4864793 40.285522
1004500000 -2.4713249 39.723091
1005000000 -2.459223 39.176003
1005500000 -2.4505837 38.617134
1006000000 -2.4414527 38.039886
1006500000 -2.4320104 37.473862
1007000000 -2.422718 36.918564
1007500000 -2.4198585 36.392296
1008000000 -2.4057863 35.813736
1008500000 -2.3961489 35.289356
1009000000 -2.3912845 34.729404
1009500000 -2.3817065 34.177856
1010000000 -2.3752594 33.660172
1010500000 -2.3629835 33.101677
1011000000 -2.3578866 32.609726
1011500000 -2.3496501 32.044182
1012000000 -2.340198 31.517881
1012500000 -2.335119 30.978594
1013000000 -2.3236682 30.466482
1013500000 -2.3149722 29.939524
1014000000 -2.3151331 29.401167
1014500000 -2.3051646 28.880459
1015000000 -2.3020904 28.361473
1015500000 -2.2960932 27.846933
1016000000 -2.2794454 27.358839
1016500000 -2.2717748 26.849792
