!Keysight Technologies,P9371A,MY57212015,A.15.65.19
!Date: Friday, July 01, 2022 12:08:58
!Correction: S11(C  1-Port  ) 
!S1P File: Measurement: S11:
# Hz S  dB   R 50
700000000 -0.72634614 -141.54329
700500000 -0.72763884 -141.70955
701000000 -0.72919369 -141.92374
701500000 -0.73728722 -142.12923
702000000 -0.73542166 -142.3208
702500000 -0.73765016 -142.48518
703000000 -0.7409054 -142.62076
703500000 -0.73951304 -142.82095
704000000 -0.73929387 -143.0553
704500000 -0.74519616 -143.25572
705000000 -0.7465778 -143.45035
705500000 -0.74907655 -143.65399
706000000 -0.74604601 -143.81569
706500000 -0.7511434 -144.01445
707000000 -0.75482857 -144.19263
707500000 -0.75484765 -144.42035
708000000 -0.75537008 -144.64517
708500000 -0.76050436 -144.81075
709000000 -0.7559948 -145.03094
709500000 -0.75955123 -145.1936
710000000 -0.76644635 -145.40034
710500000 -0.76432407 -145.58496
711000000 -0.76647228 -145.81508
711500000 -0.7719537 -145.97472
712000000 -0.77145588 -146.19647
712500000 -0.7730698 -146.41116
713000000 -0.77097297 -146.59964
713500000 -0.77535796 -146.82346
714000000 -0.77815199 -147.01329
714500000 -0.78020579 -147.2115
715000000 -0.7810182 -147.40541
715500000 -0.7859605 -147.62325
716000000 -0.79147059 -147.80861
716500000 -0.79445189 -148.01454
717000000 -0.79463679 -148.24898
717500000 -0.79458553 -148.44345
718000000 -0.79365814 -148.64789
718500000 -0.80058962 -148.81512
719000000 -0.80299884 -149.07002
719500000 -0.80247998 -149.24715
720000000 -0.81086493 -149.46495
720500000 -0.80741906 -149.6788
721000000 -0.81271082 -149.86922
721500000 -0.81480354 -150.10304
722000000 -0.8168416 -150.30605
722500000 -0.81938273 -150.50218
723000000 -0.82491535 -150.701
723500000 -0.82887173 -150.94679
724000000 -0.82830405 -151.13724
724500000 -0.83331776 -151.33115
725000000 -0.82872885 -151.5679
725500000 -0.83780664 -151.80788
726000000 -0.83680874 -151.98134
726500000 -0.84425563 -152.23195
727000000 -0.8501066 -152.41733
727500000 -0.84926891 -152.64264
728000000 -0.85424477 -152.86887
728500000 -0.85217077 -153.06093
729000000 -0.85859764 -153.31955
729500000 -0.8610304 -153.50935
730000000 -0.86040837 -153.68979
730500000 -0.86604065 -153.94411
731000000 -0.86853635 -154.16682
731500000 -0.86694413 -154.37611
732000000 -0.87281817 -154.61009
732500000 -0.87533903 -154.83568
733000000 -0.87652415 -155.06041
733500000 -0.88473189 -155.25174
734000000 -0.88226646 -155.50533
734500000 -0.88670719 -155.72685
735000000 -0.89247894 -155.93127
735500000 -0.89465851 -156.15622
736000000 -0.89003426 -156.39296
736500000 -0.90252304 -156.63843
737000000 -0.9047972 -156.85336
737500000 -0.90572286 -157.04561
738000000 -0.90753132 -157.33398
738500000 -0.91127056 -157.54881
739000000 -0.91859978 -157.76202
739500000 -0.91968352 -158.00754
740000000 -0.92114347 -158.23888
740500000 -0.92202526 -158.46738
741000000 -0.92965382 -158.70146
741500000 -0.92829931 -158.952
742000000 -0.93309319 -159.17905
742500000 -0.93722713 -159.38126
743000000 -0.94331408 -159.63333
743500000 -0.94745934 -159.84119
744000000 -0.9455055 -160.08087
744500000 -0.9510901 -160.35132
745000000 -0.957223 -160.55917
745500000 -0.95849943 -160.81017
746000000 -0.96586877 -161.08232
746500000 -0.96930325 -161.32104
747000000 -0.97620702 -161.55838
747500000 -0.97300249 -161.80302
748000000 -0.97926283 -162.04739
748500000 -0.97737688 -162.28734
749000000 -0.97864306 -162.5271
749500000 -0.99425822 -162.75713
750000000 -0.99595094 -163.03101
750500000 -0.99985021 -163.25439
751000000 -1.0004447 -163.54134
751500000 -1.0034657 -163.793
752000000 -1.0081314 -164.00056
752500000 -1.009593 -164.29387
753000000 -1.0172511 -164.52701
753500000 -1.0176213 -164.78868
754000000 -1.0317667 -165.04691
754500000 -1.0284575 -165.31596
755000000 -1.0356059 -165.554
755500000 -1.0397613 -165.83122
756000000 -1.038739 -166.08122
756500000 -1.0482534 -166.36273
757000000 -1.0511787 -166.62819
757500000 -1.0563129 -166.87695
758000000 -1.0618571 -167.15178
758500000 -1.069073 -167.38213
759000000 -1.0749806 -167.6317
759500000 -1.0766991 -167.93364
760000000 -1.0826448 -168.1958
760500000 -1.0832493 -168.46153
761000000 -1.0927175 -168.74632
761500000 -1.0984061 -169.04611
762000000 -1.1007279 -169.27446
762500000 -1.1066223 -169.59309
763000000 -1.1060697 -169.84819
763500000 -1.1157286 -170.10535
764000000 -1.1210243 -170.38753
764500000 -1.1262357 -170.68622
765000000 -1.1328609 -170.9538
765500000 -1.1429478 -171.2307
766000000 -1.1449524 -171.49225
766500000 -1.1562623 -171.81029
767000000 -1.1581042 -172.09016
767500000 -1.1612457 -172.36018
768000000 -1.1699431 -172.63603
768500000 -1.1737009 -172.91811
769000000 -1.1777309 -173.22395
769500000 -1.1878482 -173.53854
770000000 -1.1890333 -173.81525
770500000 -1.1972626 -174.14716
771000000 -1.2059959 -174.4118
771500000 -1.2154917 -174.69852
772000000 -1.2179835 -175.00674
772500000 -1.228793 -175.31711
773000000 -1.2311912 -175.59082
773500000 -1.2428304 -175.91212
774000000 -1.2505807 -176.20409
774500000 -1.2533904 -176.51389
775000000 -1.2631054 -176.82436
775500000 -1.2716312 -177.13678
776000000 -1.2780894 -177.41867
776500000 -1.2885174 -177.75217
777000000 -1.2952651 -178.01436
777500000 -1.3061442 -178.34645
778000000 -1.3126729 -178.69609
778500000 -1.315883 -178.97618
779000000 -1.3299587 -179.30466
779500000 -1.3320066 -179.62184
780000000 -1.3499609 -179.93214
780500000 -1.3511568 179.7476
781000000 -1.3612978 179.41241
781500000 -1.3667933 179.12762
782000000 -1.3740038 178.75729
782500000 -1.3884746 178.43588
783000000 -1.3966448 178.11336
783500000 -1.4053127 177.78465
784000000 -1.4129314 177.48164
784500000 -1.4222316 177.15898
785000000 -1.4373671 176.77534
785500000 -1.4409186 176.46944
786000000 -1.4553123 176.11967
786500000 -1.4648322 175.79036
787000000 -1.473722 175.47086
787500000 -1.4790974 175.09894
788000000 -1.4944389 174.77609
788500000 -1.5043685 174.41501
789000000 -1.5174433 174.06984
789500000 -1.5283395 173.74174
790000000 -1.535673 173.38943
790500000 -1.5504721 173.03348
791000000 -1.5603722 172.67332
791500000 -1.5670638 172.33344
792000000 -1.5767699 171.96944
792500000 -1.5940517 171.60648
793000000 -1.6009327 171.23236
793500000 -1.6114149 170.87733
794000000 -1.6219631 170.49419
794500000 -1.6376349 170.15152
795000000 -1.6464127 169.75204
795500000 -1.658676 169.37393
796000000 -1.6767533 169.00137
796500000 -1.6858542 168.65074
797000000 -1.69854 168.30196
797500000 -1.7157347 167.89157
798000000 -1.7260958 167.47681
798500000 -1.7415428 167.08018
799000000 -1.7556237 166.71455
799500000 -1.7677498 166.30956
800000000 -1.7836211 165.91788
800500000 -1.8039483 165.52786
801000000 -1.8108919 165.13055
801500000 -1.8299944 164.7234
802000000 -1.8461431 164.36711
802500000 -1.8589436 163.95636
803000000 -1.8722081 163.54915
803500000 -1.8893614 163.14932
804000000 -1.9107494 162.75696
804500000 -1.9259686 162.3403
805000000 -1.9443604 161.94235
805500000 -1.9563856 161.54565
806000000 -1.97041 161.13516
806500000 -1.9914902 160.70844
807000000 -2.0058985 160.27802
807500000 -2.0262606 159.85449
808000000 -2.0362182 159.49316
808500000 -2.0580454 159.01959
809000000 -2.0766213 158.61421
809500000 -2.0899043 158.21483
810000000 -2.1113052 157.72849
810500000 -2.1227434 157.29659
811000000 -2.1439614 156.84267
811500000 -2.1605229 156.45222
812000000 -2.1755219 155.98824
812500000 -2.1995671 155.52591
813000000 -2.2129776 155.06927
813500000 -2.2286742 154.6557
814000000 -2.2562847 154.18774
814500000 -2.2781622 153.71361
815000000 -2.2903118 153.26852
815500000 -2.3092752 152.79887
816000000 -2.3301044 152.31815
816500000 -2.3539748 151.84686
817000000 -2.3694811 151.36116
817500000 -2.3911467 150.92574
818000000 -2.4116762 150.39265
818500000 -2.433285 149.92807
819000000 -2.4485908 149.40994
819500000 -2.478569 148.94106
820000000 -2.4991858 148.40727
820500000 -2.5229132 147.93471
821000000 -2.543174 147.4467
821500000 -2.569438 146.96455
822000000 -2.5945704 146.40712
822500000 -2.6147797 145.94125
823000000 -2.6402817 145.36945
823500000 -2.6617999 144.89529
824000000 -2.6886895 144.38641
824500000 -2.7069609 143.8475
825000000 -2.7336848 143.33763
825500000 -2.7529008 142.80875
826000000 -2.7798519 142.26936
826500000 -2.7998776 141.72346
827000000 -2.825084 141.15807
827500000 -2.8439217 140.5773
828000000 -2.868001 140.04027
828500000 -2.8919516 139.44432
829000000 -2.9154453 138.87672
829500000 -2.9373481 138.25322
830000000 -2.9621692 137.65334
830500000 -2.9905932 137.04718
831000000 -3.0155096 136.43683
831500000 -3.035527 135.83572
832000000 -3.0699337 135.22307
832500000 -3.093055 134.57809
833000000 -3.1203737 133.93703
833500000 -3.1527467 133.28111
834000000 -3.1828454 132.60667
834500000 -3.210274 131.95956
835000000 -3.240046 131.29814
835500000 -3.2700946 130.60114
836000000 -3.3007286 129.95724
836500000 -3.33097 129.25438
837000000 -3.3636284 128.52222
837500000 -3.3946071 127.86061
838000000 -3.4297888 127.14446
838500000 -3.4640801 126.41469
839000000 -3.4970195 125.70754
839500000 -3.5325205 124.97543
840000000 -3.5685105 124.20062
840500000 -3.6028507 123.47862
841000000 -3.6360645 122.72655
841500000 -3.6704166 121.93617
842000000 -3.7094283 121.17051
842500000 -3.7461073 120.35023
843000000 -3.7760899 119.54627
843500000 -3.8208332 118.68938
844000000 -3.8616989 117.85638
844500000 -3.8997042 117.05208
845000000 -3.9400065 116.17596
845500000 -3.983767 115.30714
846000000 -4.0295615 114.41743
846500000 -4.0739126 113.53011
847000000 -4.1198382 112.59995
847500000 -4.1651278 111.7287
848000000 -4.2151613 110.8084
848500000 -4.2615557 109.87653
849000000 -4.3093085 108.94923
849500000 -4.360465 108.02213
850000000 -4.4114032 107.02756
850500000 -4.459579 106.04163
851000000 -4.5154567 105.05578
851500000 -4.5637088 104.02357
852000000 -4.6186123 103.00105
852500000 -4.6700287 101.93739
853000000 -4.7267532 100.88561
853500000 -4.7862954 99.837807
854000000 -4.8423047 98.703026
854500000 -4.9057274 97.617226
855000000 -4.9661727 96.482315
855500000 -5.0302601 95.360207
856000000 -5.0914545 94.225311
856500000 -5.1596575 93.038681
857000000 -5.2319312 91.862968
857500000 -5.2949042 90.634689
858000000 -5.3715563 89.428497
858500000 -5.4399834 88.26088
859000000 -5.5102358 86.987137
859500000 -5.5904551 85.710182
860000000 -5.6669717 84.45929
860500000 -5.7362394 83.168015
861000000 -5.8191772 81.894569
861500000 -5.8946371 80.589973
862000000 -5.9666777 79.250137
862500000 -6.0428691 77.894966
863000000 -6.1284127 76.535049
863500000 -6.20365 75.125572
864000000 -6.281384 73.722725
864500000 -6.360899 72.282097
865000000 -6.4395771 70.827736
865500000 -6.5209188 69.354012
866000000 -6.6006112 67.836884
866500000 -6.6816783 66.313156
867000000 -6.7620311 64.786026
867500000 -6.8489008 63.199276
868000000 -6.9270468 61.597919
868500000 -7.0072956 59.948025
869000000 -7.0920634 58.351578
869500000 -7.1790605 56.699284
870000000 -7.2579203 54.97245
870500000 -7.3364277 53.270164
871000000 -7.4100289 51.522579
871500000 -7.4910469 49.815201
872000000 -7.5711493 47.990341
872500000 -7.6372275 46.174469
873000000 -7.7126875 44.315205
873500000 -7.7842093 42.445663
874000000 -7.8522182 40.503342
874500000 -7.9294777 38.552731
875000000 -7.9973927 36.568722
875500000 -8.057806 34.583748
876000000 -8.119442 32.575333
876500000 -8.1864052 30.503498
877000000 -8.2425032 28.447613
877500000 -8.3049126 26.334002
878000000 -8.3580208 24.247952
878500000 -8.4178066 22.09437
879000000 -8.4611692 19.92795
879500000 -8.5060644 17.761675
880000000 -8.5519857 15.622818
880500000 -8.5880451 13.426947
881000000 -8.6257515 11.187634
881500000 -8.6566601 8.9329109
882000000 -8.6893787 6.7028799
882500000 -8.7068472 4.4674592
883000000 -8.7323122 2.2321959
883500000 -8.7455463 -0.01297387
884000000 -8.7540379 -2.2150688
884500000 -8.7632046 -4.4882426
885000000 -8.7642298 -6.7111158
885500000 -8.7536135 -8.9192705
886000000 -8.7446594 -11.184533
886500000 -8.7335129 -13.399801
887000000 -8.7078037 -15.659732
887500000 -8.6854277 -17.86331
888000000 -8.6559477 -20.064495
888500000 -8.6240616 -22.267082
889000000 -8.5753689 -24.488424
889500000 -8.5386887 -26.673563
890000000 -8.4953012 -28.852686
890500000 -8.4520435 -31.026541
891000000 -8.4026661 -33.166916
891500000 -8.3498821 -35.292023
892000000 -8.2982779 -37.41259
892500000 -8.2426481 -39.510914
893000000 -8.1837883 -41.514332
893500000 -8.1277237 -43.602566
894000000 -8.0661488 -45.564178
894500000 -7.9959383 -47.539909
895000000 -7.9371295 -49.486664
895500000 -7.8665071 -51.416214
896000000 -7.7915254 -53.298138
896500000 -7.7211199 -55.180283
897000000 -7.6503625 -57.002625
897500000 -7.5712523 -58.818542
898000000 -7.4928093 -60.635571
898500000 -7.4117546 -62.411976
899000000 -7.336441 -64.1353
899500000 -7.2530379 -65.898117
900000000 -7.173173 -67.631615
900500000 -7.0955734 -69.349915
901000000 -7.0195556 -71.015396
901500000 -6.9422412 -72.683739
902000000 -6.8589358 -74.343529
902500000 -6.7810936 -75.918213
903000000 -6.7039022 -77.504005
903500000 -6.629447 -79.135406
904000000 -6.556591 -80.70269
904500000 -6.4803667 -82.19548
905000000 -6.4083571 -83.722412
905500000 -6.3458652 -85.192276
906000000 -6.2773147 -86.650742
906500000 -6.2046204 -88.095505
907000000 -6.1325364 -89.527977
907500000 -6.0649166 -90.897568
908000000 -6.0025954 -92.275131
908500000 -5.9322696 -93.602348
909000000 -5.8661127 -94.93119
909500000 -5.801465 -96.276459
910000000 -5.7323689 -97.556198
910500000 -5.6678309 -98.836815
911000000 -5.6113219 -100.13643
911500000 -5.5439086 -101.37732
912000000 -5.4792118 -102.58282
912500000 -5.4178987 -103.75321
913000000 -5.3545742 -105.00917
913500000 -5.2973843 -106.19859
914000000 -5.2321959 -107.35875
914500000 -5.1716199 -108.53672
915000000 -5.11763 -109.66769
915500000 -5.0590892 -110.86118
916000000 -4.9990659 -111.96873
916500000 -4.9439049 -113.0924
917000000 -4.8878722 -114.18684
917500000 -4.83776 -115.26819
918000000 -4.7791357 -116.35861
918500000 -4.7267761 -117.43716
919000000 -4.6766944 -118.49651
919500000 -4.6187067 -119.5889
920000000 -4.5750146 -120.58997
920500000 -4.521771 -121.62802
921000000 -4.4771128 -122.7045
921500000 -4.4315214 -123.71186
922000000 -4.3830886 -124.72343
922500000 -4.3394861 -125.7059
923000000 -4.2945027 -126.72993
923500000 -4.2523346 -127.6895
924000000 -4.205339 -128.67049
924500000 -4.1629195 -129.61993
925000000 -4.1215115 -130.5817
925500000 -4.0787668 -131.54861
926000000 -4.0405331 -132.50562
926500000 -3.9994838 -133.42404
927000000 -3.9641361 -134.36488
927500000 -3.9194174 -135.31879
928000000 -3.8908651 -136.22824
928500000 -3.8492615 -137.1227
929000000 -3.8116457 -138.03897
929500000 -3.7780216 -138.94774
930000000 -3.7420955 -139.8235
930500000 -3.7088051 -140.6963
931000000 -3.6750293 -141.59773
931500000 -3.6471775 -142.48666
932000000 -3.6148212 -143.36972
932500000 -3.583292 -144.23209
933000000 -3.5542061 -145.07909
933500000 -3.5214946 -145.95551
934000000 -3.5032041 -146.78537
934500000 -3.4745364 -147.67046
935000000 -3.4521232 -148.45383
935500000 -3.4259019 -149.30632
936000000 -3.3954968 -150.13315
936500000 -3.3790979 -150.92798
937000000 -3.3546824 -151.77112
937500000 -3.3263304 -152.58212
938000000 -3.3076093 -153.37668
938500000 -3.2889066 -154.14967
939000000 -3.2635727 -154.92563
939500000 -3.2413256 -155.68683
940000000 -3.2251117 -156.44435
940500000 -3.2007544 -157.23117
941000000 -3.1768003 -157.94119
941500000 -3.1569901 -158.77539
942000000 -3.1381116 -159.47386
942500000 -3.122324 -160.2765
943000000 -3.0992031 -161.01808
943500000 -3.080698 -161.76448
944000000 -3.0655761 -162.52808
944500000 -3.0465474 -163.23111
945000000 -3.0215576 -163.96696
945500000 -3.016207 -164.68005
946000000 -2.9938583 -165.42815
946500000 -2.9840498 -166.1626
947000000 -2.9653602 -166.86569
947500000 -2.9558387 -167.59119
948000000 -2.9332352 -168.30917
948500000 -2.9211104 -169.01411
949000000 -2.9136789 -169.726
949500000 -2.8926024 -170.39742
950000000 -2.8831272 -171.12389
950500000 -2.8696856 -171.78592
951000000 -2.8553159 -172.46611
951500000 -2.8446188 -173.16568
952000000 -2.8302495 -173.81686
952500000 -2.8210664 -174.47878
953000000 -2.8127203 -175.1434
953500000 -2.7965901 -175.81747
954000000 -2.784368 -176.48799
954500000 -2.7716746 -177.16298
955000000 -2.758496 -177.82533
955500000 -2.7546639 -178.47008
956000000 -2.73859 -179.13594
956500000 -2.7302804 -179.75555
957000000 -2.7173285 179.55881
957500000 -2.7142107 178.92433
958000000 -2.7056527 178.31334
958500000 -2.6893673 177.63618
959000000 -2.6812823 177.03001
959500000 -2.6759434 176.35866
960000000 -2.6611645 175.76306
960500000 -2.6527264 175.10376
961000000 -2.6376016 174.47099
961500000 -2.6332068 173.86099
962000000 -2.6242137 173.24615
962500000 -2.6185801 172.60876
963000000 -2.6062264 171.9957
963500000 -2.5972452 171.36424
964000000 -2.591702 170.78427
964500000 -2.5822923 170.15497
965000000 -2.5744555 169.51614
965500000 -2.5665534 168.92848
966000000 -2.5557694 168.31323
966500000 -2.5476215 167.69554
967000000 -2.5375113 167.10219
967500000 -2.5323274 166.48787
968000000 -2.5244131 165.87619
968500000 -2.5164232 165.29247
969000000 -2.5099497 164.68472
969500000 -2.5089905 164.10117
970000000 -2.4953914 163.47357
970500000 -2.4880462 162.89619
971000000 -2.4858978 162.30058
971500000 -2.4764524 161.70328
972000000 -2.4701416 161.14056
972500000 -2.461767 160.53888
973000000 -2.4562845 159.96806
973500000 -2.4503775 159.38513
974000000 -2.4387739 158.78468
974500000 -2.4366808 158.20723
975000000 -2.4305792 157.62784
975500000 -2.4233437 157.04903
976000000 -2.4174252 156.44868
976500000 -2.4085867 155.87846
977000000 -2.40553 155.29247
977500000 -2.3979101 154.7086
978000000 -2.3949165 154.15286
978500000 -2.3922889 153.61267
979000000 -2.3840621 153.00685
979500000 -2.3811769 152.4344
980000000 -2.3716464 151.86292
980500000 -2.3690414 151.32384
981000000 -2.3651645 150.72971
981500000 -2.3576231 150.20825
982000000 -2.3538144 149.61502
982500000 -2.3491428 149.06505
983000000 -2.3464546 148.50119
983500000 -2.3408585 147.95085
984000000 -2.3344791 147.38527
984500000 -2.3274021 146.81374
985000000 -2.3243127 146.26457
985500000 -2.3230543 145.70471
986000000 -2.3155508 145.1544
986500000 -2.3136141 144.6263
987000000 -2.306478 144.03615
987500000 -2.3009379 143.49272
988000000 -2.3007779 142.95631
988500000 -2.2937481 142.39212
989000000 -2.285501 141.84413
989500000 -2.2810876 141.30177
990000000 -2.2779951 140.74274
990500000 -2.275445 140.2065
991000000 -2.268399 139.64096
991500000 -2.2680762 139.1244
992000000 -2.2607927 138.54958
992500000 -2.2585645 138.00848
993000000 -2.2558031 137.48633
993500000 -2.2534003 136.937
994000000 -2.245002 136.40643
994500000 -2.2421501 135.8575
995000000 -2.2369235 135.31456
995500000 -2.2371964 134.79782
996000000 -2.2344642 134.25151
996500000 -2.2262592 133.71065
997000000 -2.2217989 133.16876
997500000 -2.218508 132.66374
998000000 -2.2166605 132.10963
998500000 -2.2139544 131.58392
999000000 -2.2103417 131.03937
999500000 -2.2060807 130.51593
1000000000 -2.1983662 129.99477
1000500000 -2.1974237 129.44875
1001000000 -2.1944156 128.91997
1001500000 -2.1874297 128.41316
1002000000 -2.1853614 127.88457
1002500000 -2.1869204 127.33289
1003000000 -2.1778271 126.82243
1003500000 -2.1799507 126.27223
1004000000 -2.1774173 125.76332
1004500000 -2.1695259 125.22644
1005000000 -2.1649942 124.70696
1005500000 -2.1640561 124.21146
1006000000 -2.1607599 123.6627
1006500000 -2.1573358 123.15464
1007000000 -2.1544178 122.6499
1007500000 -2.1539502 122.12878
1008000000 -2.1470063 121.5741
1008500000 -2.1483228 121.08578
1009000000 -2.1459181 120.52008
1009500000 -2.1437724 120.021
1010000000 -2.137974 119.51228
1010500000 -2.140409 118.99401
1011000000 -2.1340532 118.50365
1011500000 -2.1316323 117.96969
1012000000 -2.1273324 117.45026
1012500000 -2.1298862 116.94659
1013000000 -2.1252122 116.44507
1013500000 -2.1201024 115.94767
1014000000 -2.1208658 115.41834
1014500000 -2.1177576 114.90636
