!Keysight Technologies,P9371A,MY57212015,Z.15.41.75
!Date: Wednesday, May 04, 2022 11:18:10
!Correction: S11(C  1-Port  ) 
!S1P File: Measurement: S11:
# Hz S  dB   R 50
700000000 -2.222131 68.230919
700500000 -2.2346408 67.8964
701000000 -2.2421939 67.587601
701500000 -2.2601485 67.220268
702000000 -2.2742305 66.870842
702500000 -2.2823851 66.5354
703000000 -2.2936766 66.236137
703500000 -2.3111215 65.88903
704000000 -2.3188803 65.536819
704500000 -2.3367658 65.213875
705000000 -2.3459527 64.864944
705500000 -2.3592398 64.509018
706000000 -2.3697054 64.181442
706500000 -2.3905742 63.860924
707000000 -2.4040492 63.521397
707500000 -2.4230795 63.195553
708000000 -2.4269927 62.863312
708500000 -2.4414926 62.559349
709000000 -2.4573739 62.224922
709500000 -2.4720495 61.892517
710000000 -2.4833806 61.606155
710500000 -2.4950185 61.252987
711000000 -2.5012043 60.917645
711500000 -2.5163746 60.591694
712000000 -2.5245771 60.240364
712500000 -2.5412819 59.924179
713000000 -2.5529649 59.545208
713500000 -2.5645168 59.231606
714000000 -2.5821218 58.877487
714500000 -2.6004653 58.541893
715000000 -2.6211405 58.236954
715500000 -2.6350889 57.891754
716000000 -2.6544023 57.590107
716500000 -2.669832 57.240238
717000000 -2.6850116 56.925789
717500000 -2.7009301 56.592201
718000000 -2.7226427 56.300636
718500000 -2.7377601 56.0326
719000000 -2.7576156 55.706532
719500000 -2.7737029 55.396587
720000000 -2.7930636 55.126713
720500000 -2.8067682 54.828407
721000000 -2.8218277 54.534103
721500000 -2.8388667 54.259987
722000000 -2.8588312 53.968174
722500000 -2.8725317 53.710918
723000000 -2.8891015 53.468025
723500000 -2.9079757 53.168304
724000000 -2.922997 52.929043
724500000 -2.9358537 52.654179
725000000 -2.9536796 52.420628
725500000 -2.9627345 52.207275
726000000 -2.9748025 51.968838
726500000 -2.9915133 51.723526
727000000 -2.9972849 51.487553
727500000 -3.0001593 51.25106
728000000 -3.0136108 51.025627
728500000 -3.0153911 50.805504
729000000 -3.017323 50.586548
729500000 -3.0267906 50.334427
730000000 -3.0269294 50.052258
730500000 -3.0257306 49.864868
731000000 -3.0237207 49.560089
731500000 -3.0276673 49.340054
732000000 -3.0230143 49.050266
732500000 -3.0251129 48.744133
733000000 -3.0229521 48.497662
733500000 -3.0263207 48.198021
734000000 -3.0231521 47.912617
734500000 -3.0241742 47.599365
735000000 -3.0241036 47.33696
735500000 -3.024543 47.01931
736000000 -3.0288606 46.749176
736500000 -3.0263975 46.488781
737000000 -3.0285187 46.187958
737500000 -3.0249574 45.949677
738000000 -3.0222607 45.664059
738500000 -3.0162075 45.395935
739000000 -3.0090613 45.111626
739500000 -3.0020635 44.809441
740000000 -2.9947565 44.522945
740500000 -2.9877579 44.233528
741000000 -2.9805596 43.936504
741500000 -2.9747393 43.604836
742000000 -2.9612641 43.247555
742500000 -2.9558616 42.96069
743000000 -2.9475594 42.623623
743500000 -2.9424512 42.287361
744000000 -2.9340537 41.914341
744500000 -2.9228022 41.549248
745000000 -2.9058897 41.168964
745500000 -2.9101765 40.828735
746000000 -2.8971996 40.419327
746500000 -2.8924236 40.028919
747000000 -2.8879032 39.644138
747500000 -2.8815327 39.26862
748000000 -2.8759189 38.886456
748500000 -2.8769817 38.49865
749000000 -2.8710041 38.136024
749500000 -2.8660057 37.729122
750000000 -2.868289 37.34367
750500000 -2.8613553 36.95013
751000000 -2.8616414 36.541992
751500000 -2.8555901 36.117916
752000000 -2.8552568 35.747829
752500000 -2.851959 35.316097
753000000 -2.8549917 34.94231
753500000 -2.8495147 34.517391
754000000 -2.8514934 34.107735
754500000 -2.8531952 33.716995
755000000 -2.8605719 33.315128
755500000 -2.8498266 32.923367
756000000 -2.8545876 32.558266
756500000 -2.8527362 32.147572
757000000 -2.8544111 31.734303
757500000 -2.84829 31.325171
758000000 -2.8497896 30.904356
758500000 -2.8549356 30.524721
759000000 -2.8461294 30.073101
759500000 -2.8462646 29.713957
760000000 -2.8486218 29.250141
760500000 -2.8448091 28.844696
761000000 -2.8560698 28.402767
761500000 -2.8520443 28.010021
762000000 -2.8637333 27.562113
762500000 -2.8571281 27.213085
763000000 -2.8619411 26.768295
763500000 -2.8673327 26.371424
764000000 -2.8732488 25.950006
764500000 -2.8681903 25.507561
765000000 -2.8758848 25.118567
765500000 -2.8783977 24.732676
766000000 -2.8762879 24.311018
766500000 -2.8799489 23.909119
767000000 -2.8818846 23.504118
767500000 -2.8867016 23.086294
768000000 -2.8860207 22.679384
768500000 -2.8872902 22.264668
769000000 -2.8834572 21.811384
769500000 -2.8886101 21.426571
770000000 -2.8964829 21.003119
770500000 -2.8969193 20.544823
771000000 -2.8951383 20.157425
771500000 -2.89908 19.679077
772000000 -2.905108 19.276104
772500000 -2.8994122 18.822121
773000000 -2.9060707 18.460157
773500000 -2.9155324 18.022673
774000000 -2.9169569 17.622158
774500000 -2.9173441 17.219091
775000000 -2.9266043 16.812624
775500000 -2.9237888 16.376511
776000000 -2.9225297 15.939512
776500000 -2.9256973 15.562041
777000000 -2.9200013 15.177905
777500000 -2.9260056 14.753227
778000000 -2.9244902 14.269264
778500000 -2.9254024 13.87941
779000000 -2.925868 13.425475
779500000 -2.9272311 13.029289
780000000 -2.925576 12.559642
780500000 -2.9184582 12.159543
781000000 -2.9130566 11.72937
781500000 -2.9255583 11.242496
782000000 -2.9179919 10.856881
782500000 -2.916321 10.384034
783000000 -2.9157941 9.9521627
783500000 -2.9084132 9.5352325
784000000 -2.9108641 9.0828228
784500000 -2.9124441 8.5987883
785000000 -2.9090879 8.1572647
785500000 -2.9004831 7.666925
786000000 -2.900157 7.2186356
786500000 -2.897516 6.7583647
787000000 -2.8932545 6.2775612
787500000 -2.9000661 5.8107338
788000000 -2.8954926 5.3524494
788500000 -2.8995302 4.8926721
789000000 -2.8946331 4.3414268
789500000 -2.8932662 3.9289665
790000000 -2.8938105 3.4214048
790500000 -2.888097 2.9663703
791000000 -2.8858149 2.4443934
791500000 -2.8820686 1.9901372
792000000 -2.8785548 1.510154
792500000 -2.8803453 1.0164754
793000000 -2.8757975 0.47405592
793500000 -2.8803368 -0.023463814
794000000 -2.8752239 -0.49751109
794500000 -2.8719609 -1.0074826
795000000 -2.8756528 -1.5597867
795500000 -2.8639178 -2.0297306
796000000 -2.87238 -2.5764346
796500000 -2.8719182 -3.0511239
797000000 -2.8686934 -3.6269488
797500000 -2.8724368 -4.1397791
798000000 -2.8729525 -4.717401
798500000 -2.8721232 -5.235538
799000000 -2.8727148 -5.7475424
799500000 -2.8692882 -6.2683902
800000000 -2.8734882 -6.8074603
800500000 -2.8711751 -7.3535295
801000000 -2.8817761 -7.8802934
801500000 -2.8822954 -8.4411783
802000000 -2.881855 -9.0119562
802500000 -2.8877137 -9.5178213
803000000 -2.8872359 -10.098808
803500000 -2.8829439 -10.606801
804000000 -2.8973873 -11.223472
804500000 -2.8951786 -11.76707
805000000 -2.8966329 -12.2885
805500000 -2.9064534 -12.848825
806000000 -2.9047544 -13.435736
806500000 -2.9136465 -13.961616
807000000 -2.9123271 -14.529306
807500000 -2.9166074 -15.087386
808000000 -2.9187517 -15.626365
808500000 -2.9329717 -16.219311
809000000 -2.9332407 -16.740105
809500000 -2.9322577 -17.315369
810000000 -2.9416971 -17.909721
810500000 -2.946136 -18.475136
811000000 -2.9517739 -19.051569
811500000 -2.9595141 -19.68638
812000000 -2.9625034 -20.25515
812500000 -2.9631267 -20.843485
813000000 -2.96773 -21.405451
813500000 -2.9846663 -21.992428
814000000 -2.9861488 -22.538292
814500000 -2.9918318 -23.165115
815000000 -3.0020146 -23.722652
815500000 -3.0052004 -24.294798
816000000 -3.0165143 -24.928642
816500000 -3.0239074 -25.527372
817000000 -3.0268524 -26.099049
817500000 -3.037106 -26.701141
818000000 -3.0446725 -27.26322
818500000 -3.0487292 -27.83864
819000000 -3.0570827 -28.455061
819500000 -3.0654483 -29.067568
820000000 -3.0711913 -29.690983
820500000 -3.0816348 -30.30113
821000000 -3.0873003 -30.90996
821500000 -3.0955479 -31.517649
822000000 -3.109401 -32.132622
822500000 -3.1228962 -32.744957
823000000 -3.127645 -33.355484
823500000 -3.1384122 -33.959888
824000000 -3.1477823 -34.591286
824500000 -3.1564791 -35.203213
825000000 -3.1668115 -35.845467
825500000 -3.1788421 -36.447758
826000000 -3.1864536 -37.059547
826500000 -3.2000403 -37.672928
827000000 -3.2059536 -38.294853
827500000 -3.221487 -38.95203
828000000 -3.2296093 -39.550529
828500000 -3.2442691 -40.173946
829000000 -3.2602611 -40.822124
829500000 -3.2647011 -41.39846
830000000 -3.2771318 -42.044548
830500000 -3.2854035 -42.652527
831000000 -3.2981951 -43.29847
831500000 -3.3132069 -43.916306
832000000 -3.3241215 -44.575729
832500000 -3.3273532 -45.20998
833000000 -3.3378763 -45.881939
833500000 -3.3516364 -46.518818
834000000 -3.3676879 -47.151558
834500000 -3.3792374 -47.814369
835000000 -3.3965414 -48.434818
835500000 -3.4118695 -49.073151
836000000 -3.4256663 -49.69772
836500000 -3.4401815 -50.31374
837000000 -3.4506352 -50.959927
837500000 -3.4664779 -51.571781
838000000 -3.4734838 -52.173397
838500000 -3.4829853 -52.805767
839000000 -3.4910655 -53.469021
839500000 -3.4973032 -54.075886
840000000 -3.5091829 -54.720406
840500000 -3.5167322 -55.367851
841000000 -3.525171 -56.024441
841500000 -3.5315492 -56.691696
842000000 -3.5379789 -57.359459
842500000 -3.5475876 -58.005497
843000000 -3.5542717 -58.689999
843500000 -3.5657916 -59.3843
844000000 -3.5728624 -60.051544
844500000 -3.5819261 -60.744171
845000000 -3.5929637 -61.433483
845500000 -3.5994487 -62.09866
846000000 -3.6072392 -62.778278
846500000 -3.6160314 -63.503513
847000000 -3.6262832 -64.182831
847500000 -3.6347952 -64.872276
848000000 -3.6413283 -65.570457
848500000 -3.6479254 -66.288521
849000000 -3.6550903 -67.004494
849500000 -3.6654694 -67.711777
850000000 -3.6745448 -68.425491
850500000 -3.6813557 -69.139137
851000000 -3.6914613 -69.875549
851500000 -3.6969316 -70.588318
852000000 -3.708802 -71.31176
852500000 -3.7218583 -72.069954
853000000 -3.7299759 -72.819656
853500000 -3.7423964 -73.536842
854000000 -3.7513576 -74.276657
854500000 -3.7614734 -75.01358
855000000 -3.7693834 -75.775703
855500000 -3.784225 -76.533798
856000000 -3.7899358 -77.281395
856500000 -3.8068488 -78.049706
857000000 -3.8172367 -78.829277
857500000 -3.8271594 -79.573006
858000000 -3.8403583 -80.341537
858500000 -3.8482676 -81.074829
859000000 -3.8646171 -81.849152
859500000 -3.8778338 -82.617554
860000000 -3.8947752 -83.367203
860500000 -3.8990092 -84.145142
861000000 -3.9112284 -84.914787
861500000 -3.9281034 -85.690407
862000000 -3.9391282 -86.466805
862500000 -3.9540443 -87.242844
863000000 -3.9694095 -88.028709
863500000 -3.9809492 -88.798744
864000000 -3.994478 -89.580383
864500000 -4.0101628 -90.351662
865000000 -4.0241542 -91.110596
865500000 -4.032455 -91.894722
866000000 -4.0496101 -92.660675
866500000 -4.0606446 -93.457153
867000000 -4.0750318 -94.199471
867500000 -4.0832448 -95.004349
868000000 -4.0941758 -95.79557
868500000 -4.1080661 -96.567314
869000000 -4.1214914 -97.367889
869500000 -4.129827 -98.118202
870000000 -4.1403971 -98.917763
870500000 -4.1543589 -99.681717
871000000 -4.1632948 -100.49134
871500000 -4.1705298 -101.30131
872000000 -4.1834421 -102.07963
872500000 -4.190485 -102.85508
873000000 -4.1998625 -103.68108
873500000 -4.2058187 -104.46549
874000000 -4.2140388 -105.30653
874500000 -4.2239919 -106.09958
875000000 -4.2318239 -106.90356
875500000 -4.2383132 -107.7234
876000000 -4.2476406 -108.55573
876500000 -4.25528 -109.37827
877000000 -4.2604852 -110.18678
877500000 -4.2680464 -111.02678
878000000 -4.2737541 -111.84467
878500000 -4.2799859 -112.689
879000000 -4.2840886 -113.58839
879500000 -4.2942529 -114.42645
880000000 -4.303782 -115.29095
880500000 -4.3080497 -116.16735
881000000 -4.3109212 -117.02166
881500000 -4.3235025 -117.89669
882000000 -4.3350701 -118.70753
882500000 -4.3439054 -119.591
883000000 -4.3504739 -120.44141
883500000 -4.3560853 -121.28567
884000000 -4.3672938 -122.13661
884500000 -4.3759656 -122.99323
885000000 -4.379601 -123.87887
885500000 -4.3875604 -124.74654
886000000 -4.3914442 -125.61219
886500000 -4.3944092 -126.46645
887000000 -4.399611 -127.33519
887500000 -4.4040127 -128.19165
888000000 -4.4080286 -129.0889
888500000 -4.4172931 -129.94203
889000000 -4.4188571 -130.83841
889500000 -4.4210305 -131.7323
890000000 -4.4266119 -132.655
890500000 -4.4318709 -133.56978
891000000 -4.4375334 -134.43439
891500000 -4.4414697 -135.3873
892000000 -4.4540334 -136.27153
892500000 -4.4570484 -137.19725
893000000 -4.4686823 -138.06511
893500000 -4.4776287 -138.96243
894000000 -4.4828787 -139.87943
894500000 -4.4901299 -140.75613
895000000 -4.5014405 -141.67052
895500000 -4.5057054 -142.5412
896000000 -4.5153184 -143.45195
896500000 -4.515769 -144.29953
897000000 -4.5289779 -145.2316
897500000 -4.5362635 -146.11269
898000000 -4.5406108 -146.99886
898500000 -4.5482001 -147.93234
899000000 -4.5488963 -148.77191
899500000 -4.5565333 -149.61162
900000000 -4.5557566 -150.53513
900500000 -4.566649 -151.44562
901000000 -4.575851 -152.35263
901500000 -4.5771089 -153.18987
902000000 -4.5748324 -154.08931
902500000 -4.5753384 -154.96852
903000000 -4.5841484 -155.87502
903500000 -4.590333 -156.73665
904000000 -4.5911169 -157.60172
904500000 -4.594079 -158.51143
905000000 -4.5991096 -159.36597
905500000 -4.5977564 -160.2482
906000000 -4.6017637 -161.09924
906500000 -4.5986686 -161.95096
907000000 -4.6000051 -162.85811
907500000 -4.6079392 -163.70717
908000000 -4.6061387 -164.547
908500000 -4.6024089 -165.48906
909000000 -4.6000848 -166.31827
909500000 -4.596982 -167.24379
910000000 -4.5978236 -168.06999
910500000 -4.5977011 -168.94067
911000000 -4.5993042 -169.83679
911500000 -4.5911822 -170.71252
912000000 -4.5859556 -171.5587
912500000 -4.5908623 -172.44286
913000000 -4.5852575 -173.27646
913500000 -4.5785222 -174.14673
914000000 -4.5774899 -174.92546
914500000 -4.5670004 -175.82738
915000000 -4.563951 -176.67851
915500000 -4.5567513 -177.54724
916000000 -4.5477848 -178.36539
916500000 -4.542707 -179.2189
917000000 -4.5324945 179.91681
917500000 -4.5199323 179.06813
918000000 -4.5094314 178.17834
918500000 -4.4984517 177.28699
919000000 -4.4922791 176.43796
919500000 -4.4811788 175.56367
920000000 -4.4756184 174.72461
920500000 -4.4620914 173.81314
921000000 -4.4508452 172.92862
921500000 -4.4415426 172.0442
922000000 -4.4299431 171.16441
922500000 -4.4269981 170.30801
923000000 -4.4181218 169.44902
923500000 -4.4079709 168.571
924000000 -4.4020338 167.70738
924500000 -4.3884583 166.88554
925000000 -4.3867173 165.96841
925500000 -4.3734078 165.13113
926000000 -4.3649945 164.31747
926500000 -4.3552108 163.43983
927000000 -4.3424673 162.59767
927500000 -4.3337145 161.77141
928000000 -4.3242321 160.91931
928500000 -4.3120565 160.08015
929000000 -4.2988381 159.22781
929500000 -4.2929492 158.39928
930000000 -4.2813315 157.58897
930500000 -4.2703629 156.71725
931000000 -4.2542939 155.89801
931500000 -4.2418385 155.0421
932000000 -4.232553 154.20383
932500000 -4.2240062 153.37534
933000000 -4.2114391 152.55717
933500000 -4.2024651 151.69536
934000000 -4.1947527 150.89229
934500000 -4.1772475 150.09064
935000000 -4.168571 149.2816
935500000 -4.1601863 148.42325
936000000 -4.1502209 147.6501
936500000 -4.1401019 146.83879
937000000 -4.1251302 146.04161
937500000 -4.1203156 145.24402
938000000 -4.0994043 144.50945
938500000 -4.0896649 143.71242
939000000 -4.0732164 142.93877
939500000 -4.0513449 142.15889
940000000 -4.0395041 141.40341
940500000 -4.0232587 140.58537
941000000 -4.0050907 139.7795
941500000 -3.9854853 139.01051
942000000 -3.9716427 138.21248
942500000 -3.9501741 137.39197
943000000 -3.9329898 136.57623
943500000 -3.9182055 135.76778
944000000 -3.909678 134.8644
944500000 -3.8869572 134.14128
945000000 -3.874429 133.38861
945500000 -3.8782091 132.5258
946000000 -3.8555622 131.75443
946500000 -3.8399434 130.951
947000000 -3.8222175 130.18535
947500000 -3.8171217 129.42033
948000000 -3.8051419 128.6618
948500000 -3.7907474 127.88277
949000000 -3.782793 127.12531
949500000 -3.767864 126.37282
950000000 -3.760607 125.61378
950500000 -3.7484925 124.83997
951000000 -3.7356634 124.1087
951500000 -3.7247126 123.39903
952000000 -3.7143307 122.58672
952500000 -3.6959753 121.91817
953000000 -3.6843529 121.15985
953500000 -3.6789317 120.46152
954000000 -3.6711857 119.70957
954500000 -3.6605444 119.02779
955000000 -3.6378272 118.27018
955500000 -3.6250339 117.58028
956000000 -3.6148753 116.86473
956500000 -3.6009753 116.1613
957000000 -3.5896266 115.50544
957500000 -3.5785029 114.76395
958000000 -3.5569639 114.12938
958500000 -3.5478334 113.39619
959000000 -3.5304093 112.71754
959500000 -3.5158014 112.00077
960000000 -3.494235 111.33789
960500000 -3.4823861 110.6515
961000000 -3.469938 109.95866
961500000 -3.4529414 109.27462
962000000 -3.4379883 108.59264
962500000 -3.4248686 107.88791
963000000 -3.4097009 107.19407
963500000 -3.3999147 106.51745
964000000 -3.3787477 105.88572
964500000 -3.3690853 105.20573
965000000 -3.3573678 104.52966
965500000 -3.3355176 103.86101
966000000 -3.3253086 103.15944
966500000 -3.3091152 102.47726
967000000 -3.2975991 101.85181
967500000 -3.2907035 101.20995
968000000 -3.2721238 100.51457
968500000 -3.2589388 99.889236
969000000 -3.2488999 99.259285
969500000 -3.2294886 98.655685
970000000 -3.217737 97.999077
970500000 -3.2000954 97.365868
971000000 -3.181675 96.716515
971500000 -3.1673591 96.112244
972000000 -3.1579738 95.513527
972500000 -3.1376934 94.863548
973000000 -3.1158507 94.235947
973500000 -3.0989902 93.566872
974000000 -3.0810544 92.971024
974500000 -3.0644157 92.371117
975000000 -3.0504458 91.699425
975500000 -3.0269608 91.082603
976000000 -3.0135851 90.446121
976500000 -2.9911458 89.838409
977000000 -2.9778297 89.172119
977500000 -2.9601457 88.523552
978000000 -2.9400508 87.901794
978500000 -2.9228539 87.296852
979000000 -2.9084823 86.649994
979500000 -2.8932188 86.004608
980000000 -2.8850112 85.348991
980500000 -2.8631392 84.716423
981000000 -2.8489819 84.088173
981500000 -2.836112 83.429581
982000000 -2.8212304 82.797974
982500000 -2.8144054 82.188568
983000000 -2.7964838 81.532867
983500000 -2.7911208 80.951561
984000000 -2.779223 80.317268
984500000 -2.7688966 79.706711
985000000 -2.7578022 79.109528
985500000 -2.7476215 78.532158
986000000 -2.7430859 77.913643
986500000 -2.7266798 77.351097
987000000 -2.7178586 76.793365
987500000 -2.709131 76.173355
988000000 -2.6921611 75.6166
988500000 -2.6835017 75.033272
989000000 -2.6680655 74.481857
989500000 -2.669755 73.898445
990000000 -2.6482294 73.299332
990500000 -2.6424954 72.725639
991000000 -2.6300306 72.150169
991500000 -2.6164141 71.649361
992000000 -2.6099288 71.050804
992500000 -2.5984321 70.495644
993000000 -2.5846255 69.977501
993500000 -2.5770965 69.383644
994000000 -2.5624628 68.844864
994500000 -2.554733 68.309975
995000000 -2.5413928 67.772507
995500000 -2.5279036 67.201256
996000000 -2.5185237 66.685112
996500000 -2.5075901 66.122749
997000000 -2.4955156 65.575211
997500000 -2.4761651 65.046822
998000000 -2.466501 64.532867
998500000 -2.4512818 64.002449
999000000 -2.4439995 63.414776
999500000 -2.4281888 62.896828
1000000000 -2.4176705 62.379135
1000500000 -2.3984745 61.81675
1001000000 -2.3837013 61.281898
1001500000 -2.3722711 60.745239
1002000000 -2.3601828 60.204517
1002500000 -2.3516517 59.657181
1003000000 -2.3382251 59.126919
1003500000 -2.3255374 58.57901
1004000000 -2.3206561 58.006229
1004500000 -2.2990687 57.494404
1005000000 -2.2936788 56.988533
1005500000 -2.2817144 56.44397
1006000000 -2.2716446 55.894768
1006500000 -2.2614915 55.360195
1007000000 -2.2541223 54.886154
