!Keysight Technologies,P9371A,MY57212015,Z.15.41.75
!Date: Tuesday, May 10, 2022 09:14:22
!Correction: S11(C  1-Port  ) 
!S1P File: Measurement: S11:
# Hz S  dB   R 50
700000000 -0.35660833 113.28469
700500000 -0.35565805 113.23785
701000000 -0.35731459 113.22385
701500000 -0.35513833 113.14143
702000000 -0.36094934 113.09837
702500000 -0.35953972 113.03725
703000000 -0.36163604 112.99824
703500000 -0.36486417 112.94698
704000000 -0.35868692 112.89982
704500000 -0.36219367 112.84583
705000000 -0.36057749 112.80276
705500000 -0.35939631 112.74265
706000000 -0.3592127 112.70966
706500000 -0.35825709 112.65726
707000000 -0.36219087 112.57312
707500000 -0.36274099 112.5258
708000000 -0.3574183 112.51392
708500000 -0.35783908 112.46179
709000000 -0.36082247 112.39729
709500000 -0.35932124 112.31084
710000000 -0.36470595 112.30704
710500000 -0.36198407 112.21157
711000000 -0.35966092 112.19434
711500000 -0.36100504 112.10751
712000000 -0.36162451 112.09942
712500000 -0.3633742 112.06689
713000000 -0.36466259 111.99595
713500000 -0.36256737 111.94119
714000000 -0.36080363 111.89234
714500000 -0.36459529 111.81813
715000000 -0.36845791 111.80154
715500000 -0.36425918 111.73357
716000000 -0.36978304 111.70502
716500000 -0.36427015 111.65958
717000000 -0.36402667 111.59372
717500000 -0.36472425 111.52524
718000000 -0.36528566 111.48436
718500000 -0.36964211 111.43014
719000000 -0.36755097 111.36602
719500000 -0.36286876 111.3154
720000000 -0.36745828 111.25524
720500000 -0.36275253 111.22258
721000000 -0.36574748 111.19894
721500000 -0.36419949 111.13866
722000000 -0.36786595 111.07981
722500000 -0.36516261 111.05965
723000000 -0.36648703 110.99146
723500000 -0.36729291 110.92995
724000000 -0.36859402 110.88629
724500000 -0.36405537 110.83234
725000000 -0.36865574 110.76704
725500000 -0.36782396 110.75108
726000000 -0.36181918 110.67938
726500000 -0.3691875 110.61987
727000000 -0.36558977 110.56635
727500000 -0.36425889 110.5148
728000000 -0.3671656 110.45806
728500000 -0.36726785 110.43613
729000000 -0.3695401 110.39574
729500000 -0.36908576 110.31398
730000000 -0.36709347 110.26508
730500000 -0.36834013 110.24243
731000000 -0.36731631 110.17802
731500000 -0.37260038 110.11629
732000000 -0.37365198 110.08175
732500000 -0.36894655 110.00765
733000000 -0.37405175 109.97141
733500000 -0.37207636 109.91381
734000000 -0.37015626 109.86741
734500000 -0.37285057 109.80162
735000000 -0.37133923 109.78304
735500000 -0.36794877 109.71095
736000000 -0.37072995 109.66109
736500000 -0.37048525 109.6113
737000000 -0.36827534 109.56305
737500000 -0.37033215 109.50626
738000000 -0.37153915 109.44258
738500000 -0.37085879 109.41435
739000000 -0.36852357 109.39687
739500000 -0.36884144 109.32895
740000000 -0.371216 109.26924
740500000 -0.37277439 109.22191
741000000 -0.37606221 109.169
741500000 -0.37623638 109.10661
742000000 -0.36948767 109.06789
742500000 -0.37496346 109.01078
743000000 -0.37348977 108.96149
743500000 -0.37894717 108.90639
744000000 -0.37703925 108.81324
744500000 -0.37609637 108.80867
745000000 -0.37032425 108.74833
745500000 -0.38085079 108.69681
746000000 -0.37212485 108.63831
746500000 -0.373169 108.59575
747000000 -0.37507465 108.54247
747500000 -0.3763428 108.48926
748000000 -0.3722856 108.42339
748500000 -0.37632841 108.36578
749000000 -0.37639305 108.32534
749500000 -0.37714118 108.31438
750000000 -0.37975988 108.24534
750500000 -0.37854129 108.19836
751000000 -0.3780095 108.13247
751500000 -0.37345055 108.09898
752000000 -0.37719285 108.0453
752500000 -0.3748531 107.98792
753000000 -0.37962541 107.92023
753500000 -0.37780389 107.8712
754000000 -0.37494144 107.83871
754500000 -0.3770133 107.75745
755000000 -0.38042071 107.67841
755500000 -0.37357497 107.67438
756000000 -0.38104269 107.61176
756500000 -0.38034952 107.57601
757000000 -0.37920421 107.51706
757500000 -0.3790881 107.46724
758000000 -0.37890252 107.39526
758500000 -0.38415322 107.36324
759000000 -0.37848902 107.31343
759500000 -0.38440773 107.31644
760000000 -0.37954885 107.19599
760500000 -0.3810797 107.17274
761000000 -0.37904122 107.0986
761500000 -0.38240331 107.04727
762000000 -0.38293338 106.99299
762500000 -0.38165793 106.95185
763000000 -0.37551916 106.89254
763500000 -0.38492703 106.82988
764000000 -0.38118795 106.80603
764500000 -0.38068068 106.75059
765000000 -0.37962767 106.66171
765500000 -0.38376042 106.62437
766000000 -0.38203302 106.55926
766500000 -0.3854492 106.52388
767000000 -0.38773835 106.4767
767500000 -0.3876622 106.40424
768000000 -0.38563478 106.36015
768500000 -0.38420355 106.33645
769000000 -0.38346946 106.26076
769500000 -0.38735682 106.23437
770000000 -0.3852362 106.16788
770500000 -0.38736871 106.13638
771000000 -0.38967839 106.07985
771500000 -0.38344061 106.00044
772000000 -0.38955861 105.97098
772500000 -0.38250256 105.93407
773000000 -0.38209662 105.84357
773500000 -0.38867784 105.80289
774000000 -0.38438341 105.7709
774500000 -0.3870979 105.70592
775000000 -0.3895286 105.62801
775500000 -0.38538215 105.59482
776000000 -0.38194427 105.56112
776500000 -0.38708344 105.48245
777000000 -0.39078599 105.44231
777500000 -0.39170289 105.39148
778000000 -0.3861644 105.32793
778500000 -0.39010856 105.29688
779000000 -0.38624701 105.22949
779500000 -0.39346734 105.17733
780000000 -0.38616893 105.11652
780500000 -0.38812894 105.08102
781000000 -0.39400724 105.05763
781500000 -0.39080977 104.93466
782000000 -0.39102647 104.92802
782500000 -0.39165303 104.856
783000000 -0.39266479 104.81617
783500000 -0.39108339 104.77937
784000000 -0.39003068 104.69326
784500000 -0.39095592 104.63305
785000000 -0.39092705 104.60606
785500000 -0.39107376 104.55234
786000000 -0.38955748 104.50381
786500000 -0.38917243 104.47541
787000000 -0.39275405 104.43966
787500000 -0.39687777 104.33041
788000000 -0.39390692 104.33617
788500000 -0.39596316 104.22573
789000000 -0.3947984 104.16422
789500000 -0.40182596 104.15704
790000000 -0.39707404 104.07298
790500000 -0.39750889 104.02512
791000000 -0.39334461 103.98215
791500000 -0.39997014 103.92689
792000000 -0.39294928 103.87489
792500000 -0.3993049 103.81902
793000000 -0.39489254 103.74633
793500000 -0.39618832 103.68736
794000000 -0.39965966 103.67152
794500000 -0.39775738 103.63696
795000000 -0.39736849 103.54878
795500000 -0.39844143 103.55082
796000000 -0.40162209 103.44617
796500000 -0.39913777 103.4276
797000000 -0.39720821 103.34304
797500000 -0.39963639 103.28284
798000000 -0.40066135 103.24003
798500000 -0.39952883 103.1711
799000000 -0.40266967 103.10475
799500000 -0.40198356 103.07614
800000000 -0.40094268 103.02447
800500000 -0.39704001 102.97857
801000000 -0.40613624 102.91534
801500000 -0.40841812 102.88295
802000000 -0.40144634 102.81448
802500000 -0.40229765 102.74858
803000000 -0.40139949 102.69791
803500000 -0.4024632 102.65005
804000000 -0.40706322 102.57346
804500000 -0.40740922 102.54028
805000000 -0.40791079 102.50874
805500000 -0.40763214 102.42194
806000000 -0.40233257 102.37511
806500000 -0.40473035 102.31916
807000000 -0.40499887 102.28807
807500000 -0.40748286 102.22919
808000000 -0.40878329 102.18429
808500000 -0.40915927 102.09192
809000000 -0.40771544 102.06714
809500000 -0.41062066 102.04465
810000000 -0.40444565 101.95866
810500000 -0.41282746 101.88146
811000000 -0.40736631 101.83405
811500000 -0.40619051 101.75922
812000000 -0.40928131 101.74464
812500000 -0.4058705 101.71119
813000000 -0.40943775 101.64592
813500000 -0.41112089 101.57671
814000000 -0.41120428 101.52246
814500000 -0.41008037 101.49281
815000000 -0.41335329 101.39894
815500000 -0.4135631 101.37425
816000000 -0.40938085 101.30025
816500000 -0.41509718 101.22514
817000000 -0.40940133 101.21258
817500000 -0.41133487 101.14375
818000000 -0.41243747 101.12691
818500000 -0.41385612 101.05214
819000000 -0.4153786 100.97543
819500000 -0.4151291 100.9432
820000000 -0.41432652 100.89685
820500000 -0.41295555 100.79787
821000000 -0.41940555 100.77088
821500000 -0.41530937 100.72865
822000000 -0.41987172 100.64263
822500000 -0.41557029 100.6097
823000000 -0.41843429 100.55187
823500000 -0.41570106 100.50524
824000000 -0.41813615 100.4521
824500000 -0.4208892 100.38814
825000000 -0.41839468 100.33734
825500000 -0.42072606 100.28082
826000000 -0.42289007 100.21656
826500000 -0.42315602 100.16461
827000000 -0.42235425 100.13102
827500000 -0.42431554 100.05753
828000000 -0.42131189 100.0421
828500000 -0.42409179 99.967041
829000000 -0.42216453 99.870598
829500000 -0.42251489 99.828857
830000000 -0.42985925 99.790932
830500000 -0.42743811 99.719429
831000000 -0.42603901 99.698952
831500000 -0.42924169 99.59819
832000000 -0.43014789 99.528397
832500000 -0.4327873 99.52459
833000000 -0.43109861 99.444443
833500000 -0.43103114 99.402794
834000000 -0.43157089 99.357285
834500000 -0.43310791 99.296814
835000000 -0.43376148 99.263802
835500000 -0.43896067 99.188148
836000000 -0.43386045 99.129646
836500000 -0.43579578 99.065849
837000000 -0.43639022 99.005775
837500000 -0.43674487 98.928894
838000000 -0.44190148 98.901443
838500000 -0.4402442 98.869598
839000000 -0.44215998 98.759865
839500000 -0.43973944 98.74453
840000000 -0.44015539 98.681015
840500000 -0.44398433 98.639114
841000000 -0.44374663 98.547829
841500000 -0.44526845 98.52198
842000000 -0.44518125 98.437057
842500000 -0.44894344 98.419945
843000000 -0.44654953 98.307434
843500000 -0.45448762 98.245552
844000000 -0.45061439 98.246887
844500000 -0.45536378 98.181633
845000000 -0.45055899 98.100883
845500000 -0.45773983 98.044487
846000000 -0.45370966 98.016563
846500000 -0.45286545 97.971611
847000000 -0.45791644 97.884048
847500000 -0.45762622 97.823776
848000000 -0.46091503 97.755661
848500000 -0.46180022 97.713692
849000000 -0.46738651 97.664604
849500000 -0.465765 97.621956
850000000 -0.46777081 97.586807
850500000 -0.46748772 97.539047
851000000 -0.47297454 97.473274
851500000 -0.46944815 97.381325
852000000 -0.47205588 97.340424
852500000 -0.47612709 97.273674
853000000 -0.47350594 97.23922
853500000 -0.48407927 97.184425
854000000 -0.48278129 97.150093
854500000 -0.48197481 97.059868
855000000 -0.4887298 97.016029
855500000 -0.4867647 96.964417
856000000 -0.49176571 96.948235
856500000 -0.49221072 96.880486
857000000 -0.49670687 96.815559
857500000 -0.49062192 96.741936
858000000 -0.49916548 96.685867
858500000 -0.49585515 96.650658
859000000 -0.50783294 96.605019
859500000 -0.51086915 96.527519
860000000 -0.50897747 96.518173
860500000 -0.51437569 96.441429
861000000 -0.50972557 96.439095
861500000 -0.51787227 96.358551
862000000 -0.52290219 96.312195
862500000 -0.52064347 96.268074
863000000 -0.52789766 96.233299
863500000 -0.5256632 96.180336
864000000 -0.52801603 96.118057
864500000 -0.53383547 96.094643
865000000 -0.5376032 96.034889
865500000 -0.53795069 95.971443
866000000 -0.53766006 95.973534
866500000 -0.54780412 95.897667
867000000 -0.54416984 95.895683
867500000 -0.54969102 95.844124
868000000 -0.55305791 95.762154
868500000 -0.55181205 95.753731
869000000 -0.55906767 95.690582
869500000 -0.56173891 95.667473
870000000 -0.56461281 95.641319
870500000 -0.56302148 95.623177
871000000 -0.5680666 95.577652
871500000 -0.57006532 95.556763
872000000 -0.57178527 95.493423
872500000 -0.57198346 95.478989
873000000 -0.57613051 95.438431
873500000 -0.57577646 95.407822
874000000 -0.58132732 95.414352
874500000 -0.58427733 95.374908
875000000 -0.58612412 95.366203
875500000 -0.57982779 95.353722
876000000 -0.58494216 95.321899
876500000 -0.58584946 95.279037
877000000 -0.58418518 95.247269
877500000 -0.59027171 95.206429
878000000 -0.58508408 95.217033
878500000 -0.58127433 95.178642
879000000 -0.58757216 95.13475
879500000 -0.58581066 95.130302
880000000 -0.58253551 95.110275
880500000 -0.5803647 95.045486
881000000 -0.58148712 95.04953
881500000 -0.57931185 95.023621
882000000 -0.57787007 95.033379
882500000 -0.58103907 94.94133
883000000 -0.57310748 94.919456
883500000 -0.56799811 94.911888
884000000 -0.57048005 94.868073
884500000 -0.56454474 94.846634
885000000 -0.56619 94.781799
885500000 -0.55913657 94.766464
886000000 -0.5689618 94.703201
886500000 -0.56094468 94.632675
887000000 -0.55558956 94.651031
887500000 -0.55317879 94.599136
888000000 -0.55073053 94.546341
888500000 -0.54390311 94.533371
889000000 -0.54282355 94.492104
889500000 -0.54354286 94.438889
890000000 -0.54334307 94.359337
890500000 -0.5417645 94.307037
891000000 -0.53008974 94.300629
891500000 -0.53174275 94.226578
892000000 -0.53289944 94.191612
892500000 -0.5283426 94.122177
893000000 -0.52353352 94.101311
893500000 -0.52611285 94.044052
894000000 -0.52606988 93.997253
894500000 -0.51758993 93.935432
895000000 -0.51938993 93.904785
895500000 -0.51680964 93.826126
896000000 -0.51435792 93.783112
896500000 -0.50775963 93.731155
897000000 -0.51426202 93.675003
897500000 -0.50763685 93.637184
898000000 -0.50770873 93.58876
898500000 -0.51016718 93.490753
899000000 -0.50079316 93.463089
899500000 -0.49833214 93.434258
900000000 -0.50284135 93.352509
900500000 -0.49646136 93.290558
901000000 -0.50010705 93.268173
901500000 -0.49668422 93.233185
902000000 -0.49317423 93.165001
902500000 -0.49129173 93.059479
903000000 -0.48965925 92.994141
903500000 -0.49271724 92.9571
904000000 -0.48810616 92.961685
904500000 -0.48774931 92.847595
905000000 -0.48582053 92.829071
905500000 -0.48594764 92.73278
906000000 -0.48111093 92.71505
906500000 -0.47461319 92.627731
907000000 -0.47814491 92.564476
907500000 -0.48409635 92.57103
908000000 -0.48071244 92.48777
908500000 -0.47725493 92.408051
909000000 -0.4754853 92.334625
909500000 -0.47981527 92.280769
910000000 -0.47268271 92.248383
910500000 -0.46818051 92.171669
911000000 -0.47215256 92.12487
911500000 -0.47210464 92.070831
912000000 -0.47371611 92.005623
912500000 -0.47694144 91.970528
913000000 -0.46894261 91.896614
913500000 -0.46964544 91.824135
914000000 -0.46945855 91.807999
914500000 -0.46986061 91.698364
915000000 -0.46523684 91.66124
915500000 -0.46667427 91.615135
916000000 -0.46485969 91.565041
916500000 -0.46753529 91.544701
917000000 -0.4614487 91.446442
917500000 -0.45997185 91.400299
918000000 -0.46409109 91.33168
918500000 -0.46285063 91.2743
919000000 -0.46303782 91.233925
919500000 -0.46022367 91.157692
920000000 -0.4650605 91.112892
920500000 -0.46193555 91.054863
921000000 -0.46001387 90.974861
921500000 -0.46327424 90.888069
922000000 -0.46110991 90.853577
922500000 -0.46076477 90.812218
923000000 -0.46318352 90.768051
923500000 -0.45757386 90.688911
924000000 -0.45741653 90.599731
924500000 -0.45544857 90.569702
925000000 -0.4623225 90.5149
925500000 -0.46573561 90.443283
926000000 -0.45685947 90.39624
926500000 -0.4570536 90.343094
927000000 -0.45990223 90.292603
927500000 -0.45847392 90.257072
928000000 -0.45806113 90.194473
928500000 -0.45887873 90.150124
929000000 -0.45628408 90.067604
929500000 -0.4593057 90.028656
930000000 -0.45775652 89.947456
930500000 -0.45647758 89.920181
931000000 -0.4536407 89.829239
931500000 -0.45550981 89.791725
932000000 -0.45539626 89.707802
932500000 -0.45495903 89.662186
933000000 -0.45416057 89.629654
933500000 -0.45380419 89.566513
934000000 -0.45804906 89.509102
934500000 -0.45265257 89.481819
935000000 -0.45612192 89.399086
935500000 -0.45455921 89.32872
936000000 -0.44935107 89.304901
936500000 -0.45493776 89.248878
937000000 -0.45657048 89.181786
937500000 -0.45808154 89.117447
938000000 -0.44943604 89.036934
938500000 -0.45514011 89.009621
939000000 -0.45903668 88.953079
939500000 -0.45295423 88.877518
940000000 -0.45163795 88.868896
940500000 -0.45421487 88.768311
941000000 -0.45792133 88.705566
941500000 -0.44951299 88.675247
942000000 -0.45440114 88.653976
942500000 -0.4566648 88.550949
943000000 -0.45180944 88.485931
943500000 -0.4566254 88.453453
944000000 -0.45888072 88.356079
944500000 -0.45392606 88.313881
945000000 -0.45422292 88.285973
945500000 -0.45517203 88.185127
946000000 -0.45759514 88.171127
946500000 -0.45815721 88.127556
947000000 -0.46063668 88.027687
947500000 -0.45726499 88.001228
948000000 -0.45428962 87.932632
948500000 -0.46014971 87.881538
949000000 -0.45706108 87.871338
949500000 -0.45266205 87.758125
950000000 -0.45836318 87.74279
950500000 -0.46010509 87.66053
951000000 -0.45973271 87.615616
951500000 -0.45800993 87.549767
952000000 -0.45704266 87.456139
952500000 -0.45152622 87.435989
953000000 -0.45170286 87.373466
953500000 -0.45832205 87.32386
954000000 -0.45268416 87.242249
954500000 -0.46078461 87.22847
955000000 -0.45550549 87.171432
955500000 -0.45289707 87.107773
956000000 -0.45656589 87.03511
956500000 -0.45928267 86.998535
957000000 -0.4579547 86.957985
957500000 -0.46396494 86.8936
958000000 -0.459672 86.839417
958500000 -0.46287107 86.78466
959000000 -0.45945072 86.716965
959500000 -0.45943835 86.630913
960000000 -0.45525971 86.604454
960500000 -0.45338899 86.528801
961000000 -0.45847967 86.490555
961500000 -0.46151868 86.449463
962000000 -0.45743293 86.400841
962500000 -0.45681173 86.332619
963000000 -0.45749995 86.280869
963500000 -0.46443275 86.232193
964000000 -0.45369703 86.171875
964500000 -0.45501277 86.097694
965000000 -0.46351993 86.055298
965500000 -0.45976725 85.972656
966000000 -0.4602654 85.91011
966500000 -0.4579944 85.840401
967000000 -0.45760378 85.84803
967500000 -0.46168134 85.811562
968000000 -0.4662624 85.711411
968500000 -0.46056992 85.653641
969000000 -0.46226349 85.595238
969500000 -0.45863274 85.587021
970000000 -0.46745253 85.507805
970500000 -0.45951864 85.430443
971000000 -0.46169773 85.357811
971500000 -0.46067956 85.335411
972000000 -0.46621284 85.298042
972500000 -0.46467876 85.19989
973000000 -0.46240285 85.186882
973500000 -0.45847967 85.087341
974000000 -0.46313745 85.049545
974500000 -0.45898518 85.018631
975000000 -0.47103298 84.938774
975500000 -0.46259433 84.9161
976000000 -0.46510056 84.821907
976500000 -0.45836693 84.832138
977000000 -0.46241349 84.731445
977500000 -0.46483922 84.661171
978000000 -0.4597497 84.579124
978500000 -0.46116516 84.578094
979000000 -0.46376848 84.508347
979500000 -0.46460184 84.464867
980000000 -0.46894231 84.378174
980500000 -0.46582177 84.316689
981000000 -0.467215 84.284233
981500000 -0.46883333 84.204346
982000000 -0.4690372 84.171844
982500000 -0.4686701 84.109093
983000000 -0.46269715 84.015053
983500000 -0.46474475 84.001762
984000000 -0.4637247 83.956108
984500000 -0.4660385 83.843285
985000000 -0.46367949 83.825836
985500000 -0.46559471 83.780151
986000000 -0.47179848 83.707123
986500000 -0.4685069 83.666016
987000000 -0.47162187 83.635376
987500000 -0.47130215 83.515091
988000000 -0.46179879 83.51519
988500000 -0.46785095 83.470215
989000000 -0.4622013 83.416107
989500000 -0.469901 83.331955
990000000 -0.4643296 83.266083
990500000 -0.46729112 83.20929
991000000 -0.46910325 83.153175
991500000 -0.46373564 83.139961
992000000 -0.47114176 83.068657
992500000 -0.46916929 82.993721
993000000 -0.46807584 82.962929
993500000 -0.46985629 82.86512
994000000 -0.46691522 82.833664
994500000 -0.47137544 82.761475
995000000 -0.46852449 82.750122
995500000 -0.47030339 82.677803
996000000 -0.47056416 82.621269
996500000 -0.47364336 82.537308
997000000 -0.47410962 82.499329
997500000 -0.46856311 82.435997
998000000 -0.46913207 82.415817
998500000 -0.47132754 82.366508
999000000 -0.47264317 82.247932
999500000 -0.46916986 82.216415
1000000000 -0.47261751 82.202965
1000500000 -0.47423783 82.107803
1001000000 -0.47206539 82.067825
1001500000 -0.470741 81.986282
1002000000 -0.47335181 81.953957
1002500000 -0.47145623 81.862114
1003000000 -0.47466025 81.838753
1003500000 -0.47634807 81.776726
1004000000 -0.4720377 81.684586
1004500000 -0.46712103 81.68531
1005000000 -0.47385064 81.640198
1005500000 -0.47367656 81.560249
1006000000 -0.47456294 81.496544
1006500000 -0.47330186 81.432755
1007000000 -0.48413309 81.396439
1007500000 -0.47710639 81.334518
1008000000 -0.47684291 81.312096
1008500000 -0.47453436 81.200691
1009000000 -0.47993672 81.173233
1009500000 -0.48202571 81.135254
1010000000 -0.47812179 81.063286
1010500000 -0.47251937 80.971382
1011000000 -0.47752419 80.957626
