!Keysight Technologies,P9371A,MY57212015,Z.15.41.75
!Date: Tuesday, May 10, 2022 08:38:52
!Correction: S11(C  1-Port  ) 
!S1P File: Measurement: S11:
# Hz S  dB   R 50
700000000 -0.38112408 -59.540993
700500000 -0.38543221 -59.678661
701000000 -0.38736701 -59.813717
701500000 -0.39170802 -59.951378
702000000 -0.39642823 -60.064774
702500000 -0.39663413 -60.186535
703000000 -0.40124872 -60.28054
703500000 -0.40314484 -60.437721
704000000 -0.40970317 -60.528214
704500000 -0.40817952 -60.691868
705000000 -0.41692129 -60.807194
705500000 -0.41681814 -60.918743
706000000 -0.42233285 -61.037514
706500000 -0.42756665 -61.208557
707000000 -0.42663413 -61.301685
707500000 -0.43386933 -61.434731
708000000 -0.43861672 -61.549561
708500000 -0.44006571 -61.709106
709000000 -0.44294164 -61.8116
709500000 -0.44688004 -61.969769
710000000 -0.45135334 -62.11034
710500000 -0.45630479 -62.241081
711000000 -0.45936269 -62.362331
711500000 -0.46257272 -62.506332
712000000 -0.46787891 -62.618389
712500000 -0.46934894 -62.762245
713000000 -0.47402704 -62.917034
713500000 -0.47997344 -63.058075
714000000 -0.48460945 -63.20483
714500000 -0.49105 -63.343578
715000000 -0.49222347 -63.477116
715500000 -0.49877724 -63.618584
716000000 -0.50529677 -63.791645
716500000 -0.50925869 -63.915791
717000000 -0.51030838 -64.081871
717500000 -0.5153296 -64.208366
718000000 -0.52248234 -64.350967
718500000 -0.52649504 -64.492386
719000000 -0.52903491 -64.640633
719500000 -0.54047817 -64.814133
720000000 -0.54111999 -64.962944
720500000 -0.54714668 -65.109962
721000000 -0.55039823 -65.27298
721500000 -0.55721229 -65.430321
722000000 -0.56232548 -65.572868
722500000 -0.56893319 -65.691399
723000000 -0.57597744 -65.892448
723500000 -0.58025587 -66.045441
724000000 -0.58526415 -66.194633
724500000 -0.59143609 -66.362648
725000000 -0.59823203 -66.554863
725500000 -0.60431445 -66.691208
726000000 -0.60573739 -66.868408
726500000 -0.61472952 -67.036324
727000000 -0.62128431 -67.209236
727500000 -0.62881851 -67.366783
728000000 -0.63261002 -67.532845
728500000 -0.64041233 -67.698738
729000000 -0.64700598 -67.87561
729500000 -0.65410948 -68.039635
730000000 -0.66119152 -68.222893
730500000 -0.66302788 -68.383743
731000000 -0.67305231 -68.545609
731500000 -0.67863911 -68.755478
732000000 -0.68516654 -68.895164
732500000 -0.69329375 -69.098869
733000000 -0.7015087 -69.306015
733500000 -0.70747584 -69.479919
734000000 -0.7172966 -69.664879
734500000 -0.72692513 -69.850708
735000000 -0.73432988 -70.019966
735500000 -0.74084985 -70.211029
736000000 -0.7484383 -70.409416
736500000 -0.75779682 -70.585869
737000000 -0.76454258 -70.771019
737500000 -0.77543932 -70.9804
738000000 -0.7844491 -71.195244
738500000 -0.78961384 -71.374382
739000000 -0.79502535 -71.603867
739500000 -0.8065924 -71.81179
740000000 -0.81668133 -72.00428
740500000 -0.82305366 -72.195709
741000000 -0.83288658 -72.408577
741500000 -0.84143758 -72.616562
742000000 -0.85323709 -72.821701
742500000 -0.86170465 -73.022125
743000000 -0.87436634 -73.260834
743500000 -0.88322604 -73.474716
744000000 -0.89171571 -73.694298
744500000 -0.90715617 -73.88414
745000000 -0.91177154 -74.132141
745500000 -0.9194634 -74.336174
746000000 -0.93318945 -74.580513
746500000 -0.94586432 -74.798027
747000000 -0.95850718 -75.047249
747500000 -0.96933079 -75.272789
748000000 -0.9804945 -75.486511
748500000 -0.99656957 -75.731598
749000000 -1.006132 -75.970627
749500000 -1.016976 -76.19915
750000000 -1.026036 -76.454414
750500000 -1.0404487 -76.722603
751000000 -1.0555028 -76.95797
751500000 -1.0679586 -77.190575
752000000 -1.0782969 -77.447899
752500000 -1.0945976 -77.682068
753000000 -1.1089095 -77.960434
753500000 -1.1213989 -78.226807
754000000 -1.1370734 -78.48848
754500000 -1.1548953 -78.749748
755000000 -1.1668497 -79.039001
755500000 -1.1816308 -79.297516
756000000 -1.1995397 -79.558167
756500000 -1.211823 -79.814781
757000000 -1.2284313 -80.122726
757500000 -1.2452193 -80.415443
758000000 -1.2638974 -80.659866
758500000 -1.27613 -80.948372
759000000 -1.2968706 -81.252129
759500000 -1.312793 -81.541245
760000000 -1.3342243 -81.853676
760500000 -1.3485726 -82.183098
761000000 -1.3666993 -82.466957
761500000 -1.3840624 -82.76062
762000000 -1.4021808 -83.062561
762500000 -1.4259138 -83.39473
763000000 -1.4510223 -83.690247
763500000 -1.4627407 -84.005318
764000000 -1.4873514 -84.338249
764500000 -1.5086083 -84.661568
765000000 -1.528501 -84.974121
765500000 -1.5507787 -85.344414
766000000 -1.572034 -85.636078
766500000 -1.6002172 -85.982994
767000000 -1.6181477 -86.309677
767500000 -1.6436181 -86.668282
768000000 -1.6708863 -87.057938
768500000 -1.6963584 -87.392639
769000000 -1.7174485 -87.756516
769500000 -1.7464596 -88.11232
770000000 -1.7718177 -88.506989
770500000 -1.8012954 -88.848892
771000000 -1.826776 -89.228561
771500000 -1.85023 -89.630699
772000000 -1.8809566 -89.996437
772500000 -1.9119213 -90.393845
773000000 -1.9401087 -90.792519
773500000 -1.9731524 -91.188774
774000000 -2.0043542 -91.603653
774500000 -2.0353441 -91.991272
775000000 -2.0690749 -92.411987
775500000 -2.1006711 -92.865761
776000000 -2.1339025 -93.258949
776500000 -2.1716955 -93.713837
777000000 -2.2083092 -94.162323
777500000 -2.2387295 -94.594528
778000000 -2.2760983 -95.046715
778500000 -2.31686 -95.490425
779000000 -2.3570516 -95.97702
779500000 -2.3973451 -96.426102
780000000 -2.4352233 -96.92701
780500000 -2.4779513 -97.433105
781000000 -2.5223575 -97.866631
781500000 -2.5651588 -98.393906
782000000 -2.6122334 -98.85968
782500000 -2.6547487 -99.40258
783000000 -2.7030067 -99.939194
783500000 -2.7511377 -100.44649
784000000 -2.799859 -100.99287
784500000 -2.8495171 -101.52105
785000000 -2.8977542 -102.0435
785500000 -2.9536514 -102.6353
786000000 -3.0125511 -103.21356
786500000 -3.0639198 -103.7928
787000000 -3.1192908 -104.39777
787500000 -3.1821651 -104.98936
788000000 -3.2431273 -105.56789
788500000 -3.3074434 -106.22661
789000000 -3.366257 -106.79628
789500000 -3.432317 -107.43062
790000000 -3.496552 -108.09401
790500000 -3.5713022 -108.75254
791000000 -3.6425514 -109.44516
791500000 -3.7144895 -110.09496
792000000 -3.7931807 -110.79784
792500000 -3.8669066 -111.49815
793000000 -3.9484606 -112.20316
793500000 -4.0291348 -112.97043
794000000 -4.1157851 -113.66547
794500000 -4.1992149 -114.38341
795000000 -4.2895255 -115.19236
795500000 -4.3809447 -115.9494
796000000 -4.4813495 -116.76692
796500000 -4.5750442 -117.54675
797000000 -4.6741915 -118.37707
797500000 -4.7844906 -119.21448
798000000 -4.8927836 -120.04202
798500000 -4.9983239 -120.89782
799000000 -5.1097603 -121.76124
799500000 -5.2292643 -122.64737
800000000 -5.3481073 -123.59528
800500000 -5.4779119 -124.48041
801000000 -5.5988221 -125.4535
801500000 -5.730166 -126.41756
802000000 -5.8676739 -127.39507
802500000 -6.0059972 -128.41962
803000000 -6.1575851 -129.40982
803500000 -6.3070436 -130.46025
804000000 -6.453763 -131.53181
804500000 -6.6097927 -132.61308
805000000 -6.7731376 -133.72498
805500000 -6.9446273 -134.85414
806000000 -7.113234 -135.9985
806500000 -7.2883964 -137.27922
807000000 -7.4755363 -138.51222
807500000 -7.6596551 -139.73752
808000000 -7.8546214 -141.05858
808500000 -8.0493917 -142.41962
809000000 -8.2583551 -143.79485
809500000 -8.4710474 -145.20667
810000000 -8.6861248 -146.7114
810500000 -8.9117785 -148.21732
811000000 -9.1505928 -149.83012
811500000 -9.3808384 -151.42624
812000000 -9.6340179 -153.18463
812500000 -9.8900127 -155.01656
813000000 -10.143888 -156.87672
813500000 -10.415901 -158.7794
814000000 -10.686063 -160.82246
814500000 -10.973761 -162.96852
815000000 -11.259432 -165.17294
815500000 -11.555996 -167.4971
816000000 -11.862042 -170.02892
816500000 -12.163603 -172.61586
817000000 -12.472308 -175.42102
817500000 -12.783795 -178.28752
818000000 -13.099614 178.59052
818500000 -13.421444 175.37642
819000000 -13.727884 171.815
819500000 -14.0364 168.21303
820000000 -14.330482 164.29044
820500000 -14.588378 160.19376
821000000 -14.845842 155.77939
821500000 -15.083215 151.31551
822000000 -15.28001 146.67346
822500000 -15.441944 141.6713
823000000 -15.570824 136.68178
823500000 -15.634552 131.59134
824000000 -15.6658 126.37066
824500000 -15.634959 121.29095
825000000 -15.574229 116.1282
825500000 -15.457878 111.02888
826000000 -15.306255 106.19006
826500000 -15.116055 101.40905
827000000 -14.88308 96.898041
827500000 -14.634065 92.584045
828000000 -14.362892 88.461128
828500000 -14.072532 84.571045
829000000 -13.787704 80.889122
829500000 -13.480605 77.412941
830000000 -13.167346 74.15979
830500000 -12.867928 71.058861
831000000 -12.55294 68.074478
831500000 -12.250471 65.35099
832000000 -11.950057 62.661549
832500000 -11.653628 60.167675
833000000 -11.361601 57.876354
833500000 -11.082641 55.533821
834000000 -10.804217 53.395069
834500000 -10.540281 51.326862
835000000 -10.280474 49.373165
835500000 -10.029121 47.456951
836000000 -9.7859402 45.681458
836500000 -9.5505037 43.888641
837000000 -9.3168077 42.210983
837500000 -9.0982218 40.625492
838000000 -8.8911076 39.043709
838500000 -8.6698971 37.513306
839000000 -8.4682217 36.084984
839500000 -8.2784967 34.626263
840000000 -8.08813 33.246876
840500000 -7.8983722 31.946871
841000000 -7.7335386 30.627689
841500000 -7.5532832 29.308237
842000000 -7.392014 28.102631
842500000 -7.2243233 26.897999
843000000 -7.0735598 25.732758
843500000 -6.9177341 24.59042
844000000 -6.7781763 23.474424
844500000 -6.6331892 22.377918
845000000 -6.4982467 21.248217
845500000 -6.3608122 20.207272
846000000 -6.2308784 19.236597
846500000 -6.1098018 18.186935
847000000 -5.9893532 17.207666
847500000 -5.8771214 16.244461
848000000 -5.7553134 15.257881
848500000 -5.6531324 14.346025
849000000 -5.5447097 13.395292
849500000 -5.4424038 12.516331
850000000 -5.3434124 11.620808
850500000 -5.2512088 10.742612
851000000 -5.1557727 9.8581696
851500000 -5.0634351 8.9809265
852000000 -4.9778099 8.1558867
852500000 -4.9007072 7.3496437
853000000 -4.8125215 6.5509663
853500000 -4.731039 5.7353024
854000000 -4.6562986 4.9757652
854500000 -4.5791159 4.2116961
855000000 -4.5140886 3.4445398
855500000 -4.4385529 2.7299955
856000000 -4.3777723 1.9839691
856500000 -4.3102775 1.2603269
857000000 -4.2484694 0.55470741
857500000 -4.1821318 -0.16291599
858000000 -4.1219749 -0.83557284
858500000 -4.0590782 -1.5376275
859000000 -4.0025573 -2.21574
859500000 -3.9468319 -2.8759451
860000000 -3.899684 -3.5727146
860500000 -3.8406286 -4.2646294
861000000 -3.7971125 -4.8797979
861500000 -3.7425928 -5.585762
862000000 -3.6998172 -6.1718326
862500000 -3.6502767 -6.8292732
863000000 -3.6091712 -7.4848819
863500000 -3.5666091 -8.0937586
864000000 -3.5261962 -8.7726011
864500000 -3.4864955 -9.3541985
865000000 -3.4537733 -9.9857683
865500000 -3.4114683 -10.55808
866000000 -3.380373 -11.201278
866500000 -3.344523 -11.786352
867000000 -3.316936 -12.358849
867500000 -3.2851565 -12.951338
868000000 -3.2531862 -13.551224
868500000 -3.2302899 -14.109143
869000000 -3.1985824 -14.668905
869500000 -3.178251 -15.230882
870000000 -3.1526656 -15.824347
870500000 -3.1299224 -16.362055
871000000 -3.1086907 -16.910624
871500000 -3.0861304 -17.478754
872000000 -3.0658963 -18.007172
872500000 -3.0451901 -18.530506
873000000 -3.0325446 -19.072538
873500000 -3.0100541 -19.642193
874000000 -3.0010457 -20.134018
874500000 -2.9833746 -20.680571
875000000 -2.9679501 -21.21269
875500000 -2.9579291 -21.771339
876000000 -2.9472165 -22.297825
876500000 -2.9342194 -22.771133
877000000 -2.9300523 -23.285578
877500000 -2.9227247 -23.809652
878000000 -2.9105256 -24.346472
878500000 -2.9060097 -24.877573
879000000 -2.9021356 -25.383476
879500000 -2.8947005 -25.8519
880000000 -2.8977823 -26.370455
880500000 -2.8916073 -26.905085
881000000 -2.8862658 -27.367722
881500000 -2.8882003 -27.899307
882000000 -2.8972931 -28.36046
882500000 -2.8960903 -28.922897
883000000 -2.9012535 -29.416239
883500000 -2.9031992 -29.881577
884000000 -2.9104724 -30.427288
884500000 -2.9135852 -30.87392
885000000 -2.9259796 -31.386633
885500000 -2.9344478 -31.903025
886000000 -2.9424889 -32.370499
886500000 -2.957674 -32.864414
887000000 -2.9724 -33.368649
887500000 -2.9854729 -33.84375
888000000 -3.0018589 -34.32991
888500000 -3.0215256 -34.841282
889000000 -3.0387614 -35.33215
889500000 -3.0552948 -35.773468
890000000 -3.078403 -36.252232
890500000 -3.0997901 -36.77129
891000000 -3.1240833 -37.214497
891500000 -3.1557906 -37.712563
892000000 -3.1749492 -38.158474
892500000 -3.2041721 -38.690529
893000000 -3.233952 -39.176044
893500000 -3.2629948 -39.675186
894000000 -3.295857 -40.115177
894500000 -3.3314219 -40.583809
895000000 -3.3587201 -41.094433
895500000 -3.4014654 -41.587212
896000000 -3.4381928 -42.056171
896500000 -3.4768679 -42.540462
897000000 -3.5195494 -43.010929
897500000 -3.5652659 -43.493202
898000000 -3.6154857 -43.998718
898500000 -3.6608238 -44.450626
899000000 -3.7088554 -44.950508
899500000 -3.7586474 -45.423241
900000000 -3.8164816 -45.915981
900500000 -3.8706806 -46.396271
901000000 -3.9343162 -46.863071
901500000 -3.9957995 -47.34972
902000000 -4.0561185 -47.844475
902500000 -4.1214843 -48.318661
903000000 -4.1913533 -48.815521
903500000 -4.2641563 -49.243874
904000000 -4.342134 -49.761715
904500000 -4.4185095 -50.233921
905000000 -4.5081267 -50.709591
905500000 -4.5892086 -51.175499
906000000 -4.6753464 -51.646355
906500000 -4.7699528 -52.11935
907000000 -4.8641739 -52.579987
907500000 -4.9713268 -53.041599
908000000 -5.0738573 -53.523956
908500000 -5.1850328 -53.97633
909000000 -5.3020921 -54.408073
909500000 -5.4295335 -54.849529
910000000 -5.5538054 -55.239422
910500000 -5.6830306 -55.622276
911000000 -5.8290653 -56.002621
911500000 -5.9663572 -56.349323
912000000 -6.1157637 -56.691601
912500000 -6.272058 -57.00639
913000000 -6.4305248 -57.33984
913500000 -6.6044712 -57.598175
914000000 -6.7756362 -57.852264
914500000 -6.9589109 -58.049572
915000000 -7.1459613 -58.205418
915500000 -7.3377604 -58.355019
916000000 -7.5463457 -58.49577
916500000 -7.7593608 -58.539879
917000000 -7.9841428 -58.562294
917500000 -8.2091637 -58.502239
918000000 -8.4528704 -58.38628
918500000 -8.698451 -58.150379
919000000 -8.9511766 -57.915512
919500000 -9.2167044 -57.532089
920000000 -9.4919291 -56.996693
920500000 -9.7729445 -56.473354
921000000 -10.052092 -55.74329
921500000 -10.356588 -54.845745
922000000 -10.655115 -53.782738
922500000 -10.961698 -52.590363
923000000 -11.266406 -51.172119
923500000 -11.571761 -49.582855
924000000 -11.866727 -47.780373
924500000 -12.154837 -45.769394
925000000 -12.414462 -43.467903
925500000 -12.658035 -40.978424
926000000 -12.877238 -38.141262
926500000 -13.072561 -35.257282
927000000 -13.203465 -32.160107
927500000 -13.303432 -28.855726
928000000 -13.34702 -25.554539
928500000 -13.340681 -22.1099
929000000 -13.275048 -18.867022
929500000 -13.183283 -15.613845
930000000 -13.022203 -12.465526
930500000 -12.833903 -9.6152792
931000000 -12.602052 -6.8603964
931500000 -12.347332 -4.2819276
932000000 -12.070098 -1.9819226
932500000 -11.774981 0.084727906
933000000 -11.466714 1.9205937
933500000 -11.160584 3.5899792
934000000 -10.847103 5.0638909
934500000 -10.530134 6.2947898
935000000 -10.211914 7.3330288
935500000 -9.9039574 8.3680582
936000000 -9.5997496 9.0183783
936500000 -9.2985992 9.7630911
937000000 -9.0115709 10.26065
937500000 -8.7312479 10.686793
938000000 -8.4519072 11.057415
938500000 -8.1781425 11.231481
939000000 -7.923933 11.431026
939500000 -7.6788898 11.506095
940000000 -7.4438705 11.463796
940500000 -7.2075205 11.500945
941000000 -6.9859123 11.408313
941500000 -6.7697163 11.261789
942000000 -6.5667973 11.117278
942500000 -6.3685861 10.906512
943000000 -6.1781473 10.659405
943500000 -5.9888844 10.416841
944000000 -5.8077869 10.093057
944500000 -5.6562991 9.8077269
945000000 -5.4864879 9.4759369
945500000 -5.3342147 9.1894045
946000000 -5.1806645 8.7743711
946500000 -5.0362234 8.4286737
947000000 -4.8927946 8.0323582
947500000 -4.7629538 7.649725
948000000 -4.6325049 7.2822418
948500000 -4.510798 6.8552842
949000000 -4.3966599 6.4561539
949500000 -4.276185 6.0287762
950000000 -4.1772213 5.661983
950500000 -4.0618792 5.2380996
951000000 -3.9605782 4.8195896
951500000 -3.8642869 4.3837938
952000000 -3.7647724 4.0068045
952500000 -3.6752167 3.5207627
953000000 -3.5849433 3.1408925
953500000 -3.501709 2.74101
954000000 -3.4180484 2.3561382
954500000 -3.34097 1.8927727
955000000 -3.2641013 1.5557595
955500000 -3.1842875 1.1284605
956000000 -3.1176643 0.68211311
956500000 -3.0469592 0.30125567
957000000 -2.9853504 -0.090722859
957500000 -2.9182103 -0.4522621
958000000 -2.8545985 -0.84949672
958500000 -2.7910638 -1.2776788
959000000 -2.7352152 -1.6470851
959500000 -2.6794522 -2.0025027
960000000 -2.6212699 -2.3906085
960500000 -2.5698383 -2.7464035
961000000 -2.5197883 -3.1092055
961500000 -2.4663985 -3.540499
962000000 -2.4218812 -3.8389425
962500000 -2.3684342 -4.1738715
963000000 -2.3275695 -4.5395665
963500000 -2.2918785 -4.9044099
964000000 -2.2414718 -5.2564445
964500000 -2.1984134 -5.5886912
965000000 -2.1631768 -5.9137311
965500000 -2.1186652 -6.2698956
966000000 -2.0813236 -6.5714397
966500000 -2.0486846 -6.9407005
967000000 -2.0126636 -7.2427278
967500000 -1.9770836 -7.5379848
968000000 -1.9399993 -7.8946118
968500000 -1.913347 -8.2006168
969000000 -1.8769633 -8.5344362
969500000 -1.846395 -8.8365469
970000000 -1.8113365 -9.1532011
970500000 -1.7803514 -9.4068594
971000000 -1.7578313 -9.7458429
971500000 -1.7248422 -9.9814272
972000000 -1.7002639 -10.300457
972500000 -1.6743234 -10.604791
973000000 -1.645166 -10.884683
973500000 -1.6174467 -11.150373
974000000 -1.5963249 -11.451384
974500000 -1.5694822 -11.715019
975000000 -1.5512756 -11.998313
975500000 -1.5225941 -12.253793
976000000 -1.4982936 -12.50881
976500000 -1.4789733 -12.802896
977000000 -1.4590919 -13.079788
977500000 -1.4414499 -13.279162
978000000 -1.4158999 -13.581985
978500000 -1.3982133 -13.81573
979000000 -1.3763061 -14.095702
979500000 -1.3502853 -14.343114
980000000 -1.3347644 -14.572856
980500000 -1.3164515 -14.780489
981000000 -1.3000343 -15.076632
981500000 -1.281891 -15.310475
982000000 -1.2677257 -15.530253
982500000 -1.2500628 -15.766253
983000000 -1.236263 -16.02014
983500000 -1.2184306 -16.261389
984000000 -1.2072779 -16.47455
984500000 -1.1853968 -16.678614
985000000 -1.1744459 -16.936041
985500000 -1.1619022 -17.145601
986000000 -1.1442342 -17.372734
986500000 -1.1309366 -17.589123
987000000 -1.1183434 -17.804838
987500000 -1.1051759 -18.032061
988000000 -1.0929173 -18.223679
988500000 -1.0807182 -18.438625
989000000 -1.0698594 -18.64879
989500000 -1.0610301 -18.856976
990000000 -1.0445476 -19.059664
990500000 -1.0301042 -19.238604
991000000 -1.0209125 -19.459898
991500000 -1.0101653 -19.666445
992000000 -0.99879974 -19.874384
992500000 -0.98687607 -20.045565
993000000 -0.97873384 -20.254589
993500000 -0.96800458 -20.462885
994000000 -0.95244497 -20.610447
994500000 -0.94509643 -20.828714
995000000 -0.9353404 -20.983961
995500000 -0.92701119 -21.16189
996000000 -0.91761571 -21.355904
996500000 -0.90789115 -21.573486
997000000 -0.89833158 -21.727526
997500000 -0.89294314 -21.899111
998000000 -0.88004464 -22.113359
998500000 -0.86964405 -22.276981
999000000 -0.85802579 -22.430067
999500000 -0.85091102 -22.637907
1000000000 -0.84166288 -22.785126
1000500000 -0.83817524 -22.932798
1001000000 -0.82601416 -23.153168
1001500000 -0.81726778 -23.315254
1002000000 -0.81041664 -23.470579
1002500000 -0.8043837 -23.627733
1003000000 -0.79559213 -23.850058
1003500000 -0.79266721 -23.955582
1004000000 -0.78283095 -24.140522
1004500000 -0.7749368 -24.279467
1005000000 -0.76673049 -24.473009
1005500000 -0.76058453 -24.636976
1006000000 -0.75486213 -24.781504
1006500000 -0.75324422 -24.969263
1007000000 -0.74312937 -25.134285
1007500000 -0.73387867 -25.280039
1008000000 -0.730542 -25.40373
1008500000 -0.71666646 -25.557899
1009000000 -0.71008056 -25.708649
1009500000 -0.70748287 -25.816597
1010000000 -0.69778365 -25.998682
1010500000 -0.6951465 -26.180933
1011000000 -0.6902703 -26.321329
