!Keysight Technologies,P9371A,MY57212015,Z.15.41.75
!Date: Tuesday, May 10, 2022 10:07:07
!Correction: S11(C  1-Port  ) 
!S1P File: Measurement: S11:
# Hz S  dB   R 50
650000000 -1.0486311 -89.136124
650711538.46154 -1.0669061 -89.579453
651423076.92308 -1.0866809 -90.02018
652134615.38462 -1.1086558 -90.466835
652846153.84615 -1.1287547 -90.916245
653557692.30769 -1.1463119 -91.386063
654269230.76923 -1.1693304 -91.85215
654980769.23077 -1.1926115 -92.361305
655692307.69231 -1.2174627 -92.798729
656403846.15385 -1.2462932 -93.293823
657115384.61538 -1.2635837 -93.771904
657826923.07692 -1.2959313 -94.260269
658538461.53846 -1.3233436 -94.735764
659250000 -1.3509794 -95.216919
659961538.46154 -1.3784693 -95.719986
660673076.92308 -1.4116733 -96.210274
661384615.38462 -1.4387966 -96.72187
662096153.84615 -1.4649366 -97.208275
662807692.30769 -1.4981153 -97.711632
663519230.76923 -1.5322838 -98.222137
664230769.23077 -1.5616363 -98.744499
664942307.69231 -1.5902791 -99.304298
665653846.15385 -1.6217717 -99.799141
666365384.61538 -1.6527759 -100.34698
667076923.07692 -1.6871103 -100.88242
667788461.53846 -1.7222599 -101.45995
668500000 -1.7549299 -102.03809
669211538.46154 -1.7933025 -102.61217
669923076.92308 -1.8277928 -103.20292
670634615.38462 -1.8650016 -103.7504
671346153.84615 -1.9047706 -104.35087
672057692.30769 -1.9392856 -104.94597
672769230.76923 -1.9789735 -105.58039
673480769.23077 -2.0251503 -106.17371
674192307.69231 -2.0656652 -106.81535
674903846.15385 -2.1029098 -107.42736
675615384.61538 -2.1475053 -108.07523
676326923.07692 -2.1883838 -108.73105
677038461.53846 -2.2294686 -109.45132
677750000 -2.2762902 -110.1139
678461538.46154 -2.322202 -110.79094
679173076.92308 -2.3657799 -111.49981
679884615.38462 -2.4148691 -112.23467
680596153.84615 -2.4649632 -113.0044
681307692.30769 -2.5228114 -113.78004
682019230.76923 -2.5777769 -114.52129
682730769.23077 -2.6285899 -115.30469
683442307.69231 -2.6942098 -116.09743
684153846.15385 -2.7500682 -116.86129
684865384.61538 -2.8082862 -117.65986
685576923.07692 -2.8714845 -118.5043
686288461.53846 -2.9378135 -119.37035
687000000 -3.0103972 -120.23495
687711538.46154 -3.084697 -121.11987
688423076.92308 -3.1555629 -122.01891
689134615.38462 -3.2342627 -122.92587
689846153.84615 -3.3158324 -123.82412
690557692.30769 -3.3980603 -124.71648
691269230.76923 -3.4915824 -125.64569
691980769.23077 -3.5725524 -126.59142
692692307.69231 -3.6634455 -127.50936
693403846.15385 -3.7660551 -128.45172
694115384.61538 -3.8587117 -129.41275
694826923.07692 -3.9575694 -130.35893
695538461.53846 -4.0654807 -131.26976
696250000 -4.1603532 -132.25745
696961538.46154 -4.2673883 -133.21515
697673076.92308 -4.3682427 -134.23672
698384615.38462 -4.4824719 -135.24782
699096153.84615 -4.5854979 -136.28433
699807692.30769 -4.7011514 -137.33482
700519230.76923 -4.8193688 -138.37233
701230769.23077 -4.9315314 -139.40567
701942307.69231 -5.052103 -140.52261
702653846.15385 -5.1702414 -141.59619
703365384.61538 -5.2946601 -142.72855
704076923.07692 -5.4175601 -143.86391
704788461.53846 -5.5404143 -144.99352
705500000 -5.6705828 -146.16544
706211538.46154 -5.8043351 -147.35921
706923076.92308 -5.9332256 -148.5726
707634615.38462 -6.0651236 -149.83444
708346153.84615 -6.1953268 -151.09685
709057692.30769 -6.3333869 -152.36884
709769230.76923 -6.4724803 -153.74005
710480769.23077 -6.6119967 -155.13539
711192307.69231 -6.7555404 -156.5237
711903846.15385 -6.90626 -158.02142
712615384.61538 -7.0508513 -159.50209
713326923.07692 -7.2035847 -160.9619
714038461.53846 -7.361814 -162.52188
714750000 -7.5177951 -164.09938
715461538.46154 -7.6726189 -165.68388
716173076.92308 -7.8233924 -167.36119
716884615.38462 -7.9848771 -168.96709
717596153.84615 -8.1334095 -170.66998
718307692.30769 -8.2871704 -172.45644
719019230.76923 -8.4397316 -174.26112
719730769.23077 -8.5863333 -176.16484
720442307.69231 -8.7390709 -178.06349
721153846.15385 -8.8835688 179.99232
721865384.61538 -9.0228071 177.89999
722576923.07692 -9.15868 175.86055
723288461.53846 -9.3011112 173.63533
724000000 -9.4286261 171.44707
724711538.46154 -9.5577316 169.10915
725423076.92308 -9.6702251 166.7588
726134615.38462 -9.7804708 164.2981
726846153.84615 -9.8906479 161.80383
727557692.30769 -9.9770718 159.2368
728269230.76923 -10.062055 156.58577
728980769.23077 -10.139511 153.82327
729692307.69231 -10.201804 150.91798
730403846.15385 -10.270863 147.95883
731115384.61538 -10.321391 144.93242
731826923.07692 -10.365168 141.87726
732538461.53846 -10.419675 138.82333
733250000 -10.450601 135.79515
733961538.46154 -10.483767 132.73071
734673076.92308 -10.488208 129.75343
735384615.38462 -10.48337 126.75428
736096153.84615 -10.45908 123.83488
736807692.30769 -10.416216 120.8453
737519230.76923 -10.360752 117.90668
738230769.23077 -10.28055 114.91698
738942307.69231 -10.193094 111.96051
739653846.15385 -10.095663 109.00916
740365384.61538 -9.988203 106.1434
741076923.07692 -9.8709021 103.2886
741788461.53846 -9.7452545 100.50261
742500000 -9.6066151 97.731766
743211538.46154 -9.4582605 94.97403
743923076.92308 -9.3084545 92.246704
744634615.38462 -9.1599236 89.586853
745346153.84615 -9.0071487 86.922844
746057692.30769 -8.854888 84.347267
746769230.76923 -8.7040291 81.833969
747480769.23077 -8.5487041 79.32811
748192307.69231 -8.4006186 77.045334
748903846.15385 -8.2477531 74.749878
749615384.61538 -8.0946665 72.522499
750326923.07692 -7.9420929 70.382423
751038461.53846 -7.7855821 68.288078
751750000 -7.6271658 66.266075
752461538.46154 -7.472754 64.273628
753173076.92308 -7.3161097 62.312908
753884615.38462 -7.1663642 60.390831
754596153.84615 -7.0154843 58.507816
755307692.30769 -6.8624096 56.70055
756019230.76923 -6.7193666 54.882648
756730769.23077 -6.5768924 53.087696
757442307.69231 -6.4415665 51.388786
758153846.15385 -6.312603 49.693825
758865384.61538 -6.1850424 48.101563
759576923.07692 -6.0526237 46.48008
760288461.53846 -5.9331002 44.952499
761000000 -5.8115125 43.448334
761711538.46154 -5.6981678 41.990047
762423076.92308 -5.5854006 40.562721
763134615.38462 -5.471252 39.1315
763846153.84615 -5.3661036 37.839935
764557692.30769 -5.2610879 36.485737
765269230.76923 -5.1525698 35.202175
765980769.23077 -5.0508456 33.964329
766692307.69231 -4.943965 32.744442
767403846.15385 -4.8441868 31.510962
768115384.61538 -4.7495027 30.359098
768826923.07692 -4.6388988 29.181679
769538461.53846 -4.5503378 27.984526
770250000 -4.4613953 26.8232
770961538.46154 -4.3748517 25.715679
771673076.92308 -4.287807 24.599506
772384615.38462 -4.2024198 23.510872
773096153.84615 -4.1298509 22.475674
773807692.30769 -4.0497651 21.459297
774519230.76923 -3.9735882 20.484373
775230769.23077 -3.8983722 19.548227
775942307.69231 -3.8234801 18.590746
776653846.15385 -3.749516 17.641233
777365384.61538 -3.6776872 16.684015
778076923.07692 -3.6082525 15.791515
778788461.53846 -3.5408041 14.837816
779500000 -3.4761312 13.976273
780211538.46154 -3.4086812 13.058594
780923076.92308 -3.3476179 12.232405
781634615.38462 -3.2845039 11.366561
782346153.84615 -3.2217557 10.534699
783057692.30769 -3.162235 9.6748276
783769230.76923 -3.0992258 8.8678513
784480769.23077 -3.0444403 8.0342064
785192307.69231 -2.9951541 7.2770987
785903846.15385 -2.9319649 6.4229546
786615384.61538 -2.8869104 5.6791902
787326923.07692 -2.832514 4.8914089
788038461.53846 -2.7883582 4.1481266
788750000 -2.7409406 3.4235413
789461538.46154 -2.6923184 2.6425762
790173076.92308 -2.6501606 1.9722799
790884615.38462 -2.600472 1.2144129
791596153.84615 -2.5532238 0.49337611
792307692.30769 -2.5118728 -0.16729827
793019230.76923 -2.4742248 -0.83233631
793730769.23077 -2.4300959 -1.5675128
794442307.69231 -2.3933289 -2.2376142
795153846.15385 -2.3439538 -2.905448
795865384.61538 -2.3072283 -3.5687215
796576923.07692 -2.2696517 -4.234211
797288461.53846 -2.2338605 -4.9347782
798000000 -2.2004774 -5.6183186
798711538.46154 -2.1648967 -6.2541943
799423076.92308 -2.1310551 -6.9005866
800134615.38462 -2.1081238 -7.5638103
800846153.84615 -2.0783474 -8.2274485
801557692.30769 -2.0600779 -8.7904034
802269230.76923 -2.0328379 -9.426774
802980769.23077 -2.0067766 -10.003443
803692307.69231 -1.9806833 -10.592978
804403846.15385 -1.9585156 -11.181969
805115384.61538 -1.9341649 -11.782853
805826923.07692 -1.9103006 -12.316858
806538461.53846 -1.8959703 -12.836337
807250000 -1.8645889 -13.406066
807961538.46154 -1.8458699 -13.95797
808673076.92308 -1.8191969 -14.533933
809384615.38462 -1.811692 -15.036207
810096153.84615 -1.7886635 -15.584064
810807692.30769 -1.7667233 -16.113985
811519230.76923 -1.7500246 -16.632278
812230769.23077 -1.73362 -17.150356
812942307.69231 -1.7166721 -17.643337
813653846.15385 -1.7039846 -18.159897
814365384.61538 -1.6873986 -18.663406
815076923.07692 -1.6718383 -19.145533
815788461.53846 -1.6563056 -19.599466
816500000 -1.6511267 -20.105551
817211538.46154 -1.6261642 -20.571352
817923076.92308 -1.6229323 -21.06402
818634615.38462 -1.6038656 -21.531086
819346153.84615 -1.5995426 -21.969269
820057692.30769 -1.5872883 -22.40737
820769230.76923 -1.573097 -22.862839
821480769.23077 -1.5613319 -23.279545
822192307.69231 -1.5482421 -23.748606
822903846.15385 -1.5361557 -24.148695
823615384.61538 -1.5325034 -24.597706
824326923.07692 -1.5124621 -24.985992
825038461.53846 -1.5044762 -25.429737
825750000 -1.4893848 -25.854872
826461538.46154 -1.4780797 -26.281994
827173076.92308 -1.4686 -26.705986
827884615.38462 -1.4543183 -27.131258
828596153.84615 -1.4450611 -27.543999
829307692.30769 -1.4352138 -27.979166
830019230.76923 -1.4269989 -28.361889
830730769.23077 -1.4150966 -28.784863
831442307.69231 -1.4083089 -29.186745
832153846.15385 -1.3955766 -29.611712
832865384.61538 -1.394184 -29.990309
833576923.07692 -1.3847488 -30.413696
834288461.53846 -1.3805716 -30.832062
835000000 -1.3724324 -31.209297
835711538.46154 -1.3687912 -31.621407
836423076.92308 -1.3634109 -31.956245
837134615.38462 -1.3577114 -32.359867
837846153.84615 -1.3465627 -32.714848
838557692.30769 -1.339211 -33.098354
839269230.76923 -1.3357141 -33.489265
839980769.23077 -1.3278906 -33.872261
840692307.69231 -1.3190223 -34.250839
841403846.15385 -1.3183357 -34.651581
842115384.61538 -1.3128756 -35.029648
842826923.07692 -1.3095967 -35.371517
843538461.53846 -1.3076079 -35.734249
844250000 -1.3051963 -36.093571
844961538.46154 -1.3001107 -36.471752
845673076.92308 -1.296767 -36.834316
846384615.38462 -1.2908183 -37.229454
847096153.84615 -1.2888876 -37.545879
847807692.30769 -1.281916 -37.914722
848519230.76923 -1.2750453 -38.273445
849230769.23077 -1.2815384 -38.666492
849942307.69231 -1.2733936 -39.013493
850653846.15385 -1.26815 -39.377457
851365384.61538 -1.2674768 -39.719219
852076923.07692 -1.2685777 -40.125305
852788461.53846 -1.2662796 -40.465763
853500000 -1.2640365 -40.81028
854211538.46154 -1.2618304 -41.126919
854923076.92308 -1.2608572 -41.473686
855634615.38462 -1.2590612 -41.821476
856346153.84615 -1.2595243 -42.177227
857057692.30769 -1.2611597 -42.530201
857769230.76923 -1.2596442 -42.904034
858480769.23077 -1.2545048 -43.186188
859192307.69231 -1.2623137 -43.55904
859903846.15385 -1.2551365 -43.902714
860615384.61538 -1.2616134 -44.21616
861326923.07692 -1.2624958 -44.572552
862038461.53846 -1.2646219 -44.909718
862750000 -1.2594674 -45.244869
863461538.46154 -1.262484 -45.607201
864173076.92308 -1.2587675 -45.893051
864884615.38462 -1.2657297 -46.220081
865596153.84615 -1.2632512 -46.560307
866307692.30769 -1.2612476 -46.884941
867019230.76923 -1.2607679 -47.240032
867730769.23077 -1.2655319 -47.541847
868442307.69231 -1.2627007 -47.883034
869153846.15385 -1.2623448 -48.189735
869865384.61538 -1.2586776 -48.518147
870576923.07692 -1.2602316 -48.843571
871288461.53846 -1.2591549 -49.156796
872000000 -1.2603222 -49.515671
872711538.46154 -1.2595212 -49.846848
873423076.92308 -1.25456 -50.17403
874134615.38462 -1.2546899 -50.495026
874846153.84615 -1.2521031 -50.85759
875557692.30769 -1.2522461 -51.213047
876269230.76923 -1.25088 -51.590473
876980769.23077 -1.2525328 -51.902348
877692307.69231 -1.2492341 -52.280197
878403846.15385 -1.2546655 -52.63039
879115384.61538 -1.2520257 -52.998943
879826923.07692 -1.256711 -53.342018
880538461.53846 -1.2606897 -53.706177
881250000 -1.2573209 -54.090591
881961538.46154 -1.2618266 -54.45298
882673076.92308 -1.2639787 -54.812935
883384615.38462 -1.2707189 -55.155125
884096153.84615 -1.2751811 -55.53669
884807692.30769 -1.2802229 -55.91135
885519230.76923 -1.2821431 -56.267681
886230769.23077 -1.2927941 -56.650909
886942307.69231 -1.2969946 -56.973698
887653846.15385 -1.3002955 -57.359924
888365384.61538 -1.3044524 -57.733078
889076923.07692 -1.3127829 -58.115097
889788461.53846 -1.3168224 -58.451546
890500000 -1.3273151 -58.851929
891211538.46154 -1.3306901 -59.191902
891923076.92308 -1.3428061 -59.543842
892634615.38462 -1.3441164 -59.943184
893346153.84615 -1.3530656 -60.320366
894057692.30769 -1.3576194 -60.701202
894769230.76923 -1.3652599 -61.065525
895480769.23077 -1.3760431 -61.44706
896192307.69231 -1.3847072 -61.811298
896903846.15385 -1.3892659 -62.180389
897615384.61538 -1.4016732 -62.553852
898326923.07692 -1.4049617 -62.917591
899038461.53846 -1.4144409 -63.287823
899750000 -1.4246203 -63.682827
900461538.46154 -1.4338505 -64.069656
901173076.92308 -1.4372748 -64.449188
901884615.38462 -1.4471861 -64.818932
902596153.84615 -1.4527775 -65.197868
903307692.30769 -1.4600526 -65.601074
904019230.76923 -1.4628497 -65.985878
904730769.23077 -1.4730213 -66.395546
905442307.69231 -1.4838058 -66.817383
906153846.15385 -1.4874641 -67.233109
906865384.61538 -1.494452 -67.672295
907576923.07692 -1.5064634 -68.095207
908288461.53846 -1.5133677 -68.572632
909000000 -1.5259556 -69.010773
909711538.46154 -1.5364949 -69.457413
910423076.92308 -1.5502871 -69.924843
911134615.38462 -1.5653634 -70.365746
911846153.84615 -1.5807341 -70.814026
912557692.30769 -1.5976081 -71.263519
913269230.76923 -1.6166357 -71.707581
913980769.23077 -1.627488 -72.125992
914692307.69231 -1.6474079 -72.601563
915403846.15385 -1.6623651 -73.066452
916115384.61538 -1.6796627 -73.531006
916826923.07692 -1.6953987 -73.957123
917538461.53846 -1.7108384 -74.442436
918250000 -1.7280307 -74.921196
918961538.46154 -1.746227 -75.366287
919673076.92308 -1.7607529 -75.84082
920384615.38462 -1.7803003 -76.33297
921096153.84615 -1.7980899 -76.806961
921807692.30769 -1.8191313 -77.299286
922519230.76923 -1.8359857 -77.8004
923230769.23077 -1.8551056 -78.284081
923942307.69231 -1.8740146 -78.800354
924653846.15385 -1.8945422 -79.315178
925365384.61538 -1.9122654 -79.84053
926076923.07692 -1.9300156 -80.362663
926788461.53846 -1.9537098 -80.918655
927500000 -1.9762099 -81.466919
928211538.46154 -1.9991125 -82.018181
928923076.92308 -2.0265582 -82.586334
929634615.38462 -2.0550566 -83.172401
930346153.84615 -2.0781415 -83.724068
931057692.30769 -2.1118822 -84.309608
931769230.76923 -2.1396859 -84.879044
932480769.23077 -2.1730847 -85.445671
933192307.69231 -2.201195 -86.027031
933903846.15385 -2.2330964 -86.621071
934615384.61538 -2.2641435 -87.221283
935326923.07692 -2.2979841 -87.797684
936038461.53846 -2.3320825 -88.411148
936750000 -2.364588 -89.045967
937461538.46154 -2.3988571 -89.635429
938173076.92308 -2.4312079 -90.282417
938884615.38462 -2.4706163 -90.930885
939596153.84615 -2.5094819 -91.61422
940307692.30769 -2.5472591 -92.265701
941019230.76923 -2.5909755 -92.928383
941730769.23077 -2.63534 -93.620224
942442307.69231 -2.6813002 -94.3069
943153846.15385 -2.7299867 -94.982277
943865384.61538 -2.7774267 -95.668137
944576923.07692 -2.8271487 -96.370354
945288461.53846 -2.8775067 -97.01339
946000000 -2.9269643 -97.729553
946711538.46154 -2.9773245 -98.388184
947423076.92308 -3.0285087 -99.082314
948134615.38462 -3.0748763 -99.773758
948846153.84615 -3.1294401 -100.54279
949557692.30769 -3.1818111 -101.275
950269230.76923 -3.2308166 -102.02894
950980769.23077 -3.285423 -102.80089
951692307.69231 -3.3435388 -103.55531
952403846.15385 -3.4022191 -104.32454
953115384.61538 -3.4597673 -105.15161
953826923.07692 -3.5231009 -105.95248
954538461.53846 -3.5768528 -106.81287
955250000 -3.6382246 -107.64604
955961538.46154 -3.7089977 -108.49956
956673076.92308 -3.7746546 -109.33999
957384615.38462 -3.8371828 -110.23664
958096153.84615 -3.9029989 -111.14178
958807692.30769 -3.9741011 -112.06851
959519230.76923 -4.0408134 -112.93518
960230769.23077 -4.1136565 -113.9025
960942307.69231 -4.1824307 -114.86786
961653846.15385 -4.2551885 -115.8646
962365384.61538 -4.330884 -116.8639
963076923.07692 -4.4050179 -117.91222
963788461.53846 -4.4872437 -119.00619
964500000 -4.5640774 -120.04354
965211538.46154 -4.6450505 -121.17372
965923076.92308 -4.7364502 -122.30232
966634615.38462 -4.8172412 -123.47892
967346153.84615 -4.9106231 -124.68253
968057692.30769 -5.0042844 -125.91187
968769230.76923 -5.1032104 -127.16132
969480769.23077 -5.2001123 -128.4425
970192307.69231 -5.3042274 -129.73698
970903846.15385 -5.4061856 -131.01804
971615384.61538 -5.5205836 -132.41811
972326923.07692 -5.6206689 -133.78108
973038461.53846 -5.7320337 -135.20044
973750000 -5.8476262 -136.67531
974461538.46154 -5.9614224 -138.18593
975173076.92308 -6.0853653 -139.72603
975884615.38462 -6.2033882 -141.31696
976596153.84615 -6.3292422 -142.96544
977307692.30769 -6.4580455 -144.69833
978019230.76923 -6.5953245 -146.40207
978730769.23077 -6.7362685 -148.22057
979442307.69231 -6.8832536 -150.08096
980153846.15385 -7.043962 -151.95961
980865384.61538 -7.2105498 -153.83228
981576923.07692 -7.3861709 -155.74237
982288461.53846 -7.5561795 -157.62486
983000000 -7.7287669 -159.49477
983711538.46154 -7.8918018 -161.41882
984423076.92308 -8.0551271 -163.32503
985134615.38462 -8.2105684 -165.21996
985846153.84615 -8.3593311 -167.25507
986557692.30769 -8.5000839 -169.34866
987269230.76923 -8.631094 -171.47391
987980769.23077 -8.7645111 -173.70134
988692307.69231 -8.8974781 -176.08292
989403846.15385 -9.0193787 -178.42249
990115384.61538 -9.1336155 179.06995
990826923.07692 -9.2478542 176.59613
991538461.53846 -9.3484945 173.91988
992250000 -9.4396915 171.25044
992961538.46154 -9.5182495 168.54549
993673076.92308 -9.5846519 165.64784
994384615.38462 -9.6489983 162.69147
995096153.84615 -9.6922483 159.67783
995807692.30769 -9.7384357 156.5843
996519230.76923 -9.7722845 153.38573
997230769.23077 -9.8018112 150.16347
997942307.69231 -9.8252621 146.88287
998653846.15385 -9.827754 143.62311
999365384.61538 -9.8238955 140.30556
1000076923.0769 -9.814889 137.0163
1000788461.5385 -9.8007107 133.70706
1001500000 -9.7645855 130.45972
1002211538.4615 -9.7256155 127.28511
1002923076.9231 -9.6729746 124.12895
1003634615.3846 -9.6086388 120.95085
1004346153.8462 -9.5192022 117.86144
1005057692.3077 -9.431859 114.91299
1005769230.7692 -9.3240871 111.90735
1006480769.2308 -9.2097559 108.9956
1007192307.6923 -9.0897923 106.1183
1007903846.1538 -8.9580507 103.26781
1008615384.6154 -8.8199015 100.45145
1009326923.0769 -8.6754913 97.687904
1010038461.5385 -8.5285845 95.005341
1010750000 -8.3845224 92.320786
1011461538.4615 -8.2467318 89.738815
1012173076.9231 -8.1002874 87.155769
1012884615.3846 -7.9644718 84.696144
1013596153.8462 -7.826087 82.270576
1014307692.3077 -7.6921687 79.935524
1015019230.7692 -7.5613832 77.684235
1015730769.2308 -7.425796 75.548111
1016442307.6923 -7.2942877 73.455795
1017153846.1538 -7.168467 71.433922
1017865384.6154 -7.0394969 69.507965
1018576923.0769 -6.9191637 67.691093
1019288461.5385 -6.7899947 65.928398
1020000000 -6.6576085 64.198662
1020711538.4615 -6.5240483 62.59721
1021423076.9231 -6.3863163 60.951954
1022134615.3846 -6.2446752 59.387852
1022846153.8462 -6.1094799 57.772369
1023557692.3077 -5.9724226 56.180473
1024269230.7692 -5.8399758 54.666389
1024980769.2308 -5.7188549 53.102947
1025692307.6923 -5.5850606 51.626694
1026403846.1538 -5.4650598 50.206093
1027115384.6154 -5.3522849 48.777569
1027826923.0769 -5.2392168 47.381214
1028538461.5385 -5.1271114 46.021626
1029250000 -5.0223889 44.665218
1029961538.4615 -4.9167266 43.383999
