!Keysight Technologies,P9371A,MY57212015,A.15.65.19
!Date: Tuesday, June 07, 2022 09:10:02
!Correction: S11(C  1-Port  ) 
!S1P File: Measurement: S11:
# Hz S  dB   R 50
700000000 -0.18112786 -43.103107
700500000 -0.18681048 -43.195728
701000000 -0.18503161 -43.301384
701500000 -0.18639866 -43.367867
702000000 -0.18696263 -43.463413
702500000 -0.1870102 -43.546856
703000000 -0.18819891 -43.638187
703500000 -0.1885317 -43.708069
704000000 -0.18956102 -43.828899
704500000 -0.1928959 -43.903584
705000000 -0.19144915 -44.007755
705500000 -0.19536705 -44.105221
706000000 -0.19866088 -44.198677
706500000 -0.19367398 -44.266388
707000000 -0.19977473 -44.380348
707500000 -0.19920611 -44.471836
708000000 -0.20059499 -44.582321
708500000 -0.19929826 -44.670944
709000000 -0.20208411 -44.747425
709500000 -0.20266721 -44.816723
710000000 -0.20605613 -44.916805
710500000 -0.20939012 -45.012543
711000000 -0.20784202 -45.147308
711500000 -0.20640169 -45.207661
712000000 -0.21142931 -45.284817
712500000 -0.21165244 -45.394493
713000000 -0.21299827 -45.468933
713500000 -0.21279518 -45.597263
714000000 -0.21865825 -45.670399
714500000 -0.2173474 -45.746994
715000000 -0.21931927 -45.875576
715500000 -0.22532338 -45.962379
716000000 -0.222864 -46.070408
716500000 -0.22604021 -46.170334
717000000 -0.22202264 -46.257816
717500000 -0.22356273 -46.35146
718000000 -0.22685672 -46.413589
718500000 -0.23117636 -46.544174
719000000 -0.2282403 -46.624977
719500000 -0.23516746 -46.731052
720000000 -0.23443407 -46.834549
720500000 -0.23848559 -46.922169
721000000 -0.23359211 -47.046883
721500000 -0.23788618 -47.123295
722000000 -0.24201207 -47.216328
722500000 -0.23702823 -47.326839
723000000 -0.23998393 -47.420517
723500000 -0.24874936 -47.528141
724000000 -0.24408416 -47.611973
724500000 -0.24431856 -47.718723
725000000 -0.24824582 -47.835697
725500000 -0.24650846 -47.914291
726000000 -0.25417399 -48.042324
726500000 -0.25436118 -48.119347
727000000 -0.25585678 -48.224102
727500000 -0.25233302 -48.337975
728000000 -0.25346264 -48.463722
728500000 -0.26185364 -48.559727
729000000 -0.26208955 -48.643902
729500000 -0.26427001 -48.773342
730000000 -0.26562756 -48.873863
730500000 -0.26717934 -48.977409
731000000 -0.26625723 -49.075054
731500000 -0.26924226 -49.202393
732000000 -0.27402198 -49.309921
732500000 -0.27184132 -49.435417
733000000 -0.27110639 -49.527882
733500000 -0.27619436 -49.64452
734000000 -0.28200391 -49.726154
734500000 -0.28249785 -49.861237
735000000 -0.28637242 -49.973507
735500000 -0.2837677 -50.054695
736000000 -0.2886301 -50.17569
736500000 -0.29374862 -50.28479
737000000 -0.28914416 -50.404659
737500000 -0.29302993 -50.503811
738000000 -0.29317394 -50.630466
738500000 -0.29513758 -50.760006
739000000 -0.30036199 -50.846745
739500000 -0.30085245 -50.963978
740000000 -0.30308077 -51.077587
740500000 -0.30532187 -51.20652
741000000 -0.30872494 -51.327175
741500000 -0.3100706 -51.451878
742000000 -0.3182793 -51.566673
742500000 -0.31245998 -51.686405
743000000 -0.31717473 -51.814316
743500000 -0.31694889 -51.923992
744000000 -0.32327533 -52.036648
744500000 -0.32349175 -52.167393
745000000 -0.32540694 -52.29715
745500000 -0.32693726 -52.427189
746000000 -0.32855242 -52.528481
746500000 -0.33349487 -52.672195
747000000 -0.33659223 -52.757862
747500000 -0.33824486 -52.908566
748000000 -0.34055236 -53.052914
748500000 -0.34287116 -53.167168
749000000 -0.34857097 -53.307785
749500000 -0.34667552 -53.459236
750000000 -0.3516064 -53.612381
750500000 -0.35111326 -53.719315
751000000 -0.35408446 -53.844513
751500000 -0.3563824 -53.987495
752000000 -0.362544 -54.147511
752500000 -0.36364779 -54.269543
753000000 -0.36931011 -54.420513
753500000 -0.36882651 -54.554733
754000000 -0.37633914 -54.69006
754500000 -0.37883756 -54.816212
755000000 -0.3832396 -54.998058
755500000 -0.3815299 -55.143169
756000000 -0.39086077 -55.268585
756500000 -0.39246956 -55.408001
757000000 -0.39546865 -55.558853
757500000 -0.4006798 -55.715919
758000000 -0.40667546 -55.862656
758500000 -0.40672833 -56.033531
759000000 -0.41280469 -56.186977
759500000 -0.41992989 -56.335243
760000000 -0.41866377 -56.492157
760500000 -0.42531753 -56.661804
761000000 -0.42725274 -56.836063
761500000 -0.43696871 -56.949123
762000000 -0.43367967 -57.165031
762500000 -0.44445771 -57.319439
763000000 -0.44998902 -57.45607
763500000 -0.44850656 -57.628765
764000000 -0.45754769 -57.777718
764500000 -0.46379009 -57.961971
765000000 -0.46286762 -58.131145
765500000 -0.47062388 -58.321243
766000000 -0.47696224 -58.49976
766500000 -0.47995839 -58.670528
767000000 -0.49097031 -58.826801
767500000 -0.495444 -59.037418
768000000 -0.50167429 -59.221687
768500000 -0.50653279 -59.412628
769000000 -0.51053602 -59.610714
769500000 -0.51855415 -59.779495
770000000 -0.52635568 -59.970818
770500000 -0.53142446 -60.157928
771000000 -0.54041636 -60.343704
771500000 -0.54441398 -60.592739
772000000 -0.55635774 -60.76395
772500000 -0.55867875 -60.974083
773000000 -0.57313085 -61.188168
773500000 -0.57699639 -61.3992
774000000 -0.58462942 -61.600986
774500000 -0.59275806 -61.817612
775000000 -0.6047188 -62.000572
775500000 -0.60890144 -62.252121
776000000 -0.61890036 -62.460777
776500000 -0.63115585 -62.662842
777000000 -0.63921344 -62.907028
777500000 -0.65214902 -63.116085
778000000 -0.66317594 -63.39658
778500000 -0.67244059 -63.602081
779000000 -0.68351102 -63.8377
779500000 -0.69421577 -64.080231
780000000 -0.70932281 -64.320404
780500000 -0.71899897 -64.569016
781000000 -0.73377079 -64.807449
781500000 -0.74830365 -65.077553
782000000 -0.75687784 -65.339859
782500000 -0.77300549 -65.565819
783000000 -0.78446114 -65.84494
783500000 -0.79966092 -66.127419
784000000 -0.81648111 -66.373367
784500000 -0.83352005 -66.659683
785000000 -0.85289055 -66.934196
785500000 -0.86556542 -67.193909
786000000 -0.88559484 -67.510574
786500000 -0.90035737 -67.770172
787000000 -0.91863304 -68.076134
787500000 -0.9359858 -68.335892
788000000 -0.95651156 -68.627647
788500000 -0.97434127 -68.919945
789000000 -0.99601638 -69.239723
789500000 -1.0150151 -69.548119
790000000 -1.0356312 -69.86129
790500000 -1.0560329 -70.147003
791000000 -1.0811106 -70.484871
791500000 -1.1037253 -70.819565
792000000 -1.1248565 -71.157478
792500000 -1.1479951 -71.514626
793000000 -1.1727456 -71.830009
793500000 -1.2012918 -72.196541
794000000 -1.2240171 -72.579872
794500000 -1.2536261 -72.921303
795000000 -1.2832443 -73.268219
795500000 -1.3093271 -73.656075
796000000 -1.3390017 -74.072357
796500000 -1.3708224 -74.454086
797000000 -1.4021533 -74.873146
797500000 -1.4363508 -75.269379
798000000 -1.4706802 -75.702301
798500000 -1.5067747 -76.159676
799000000 -1.5478132 -76.565117
799500000 -1.586036 -77.006966
800000000 -1.6232604 -77.485634
800500000 -1.6725886 -77.935478
801000000 -1.7152643 -78.412643
801500000 -1.7618697 -78.917656
802000000 -1.8124366 -79.396828
802500000 -1.8640742 -79.915451
803000000 -1.9126192 -80.393639
803500000 -1.9719143 -80.946411
804000000 -2.0279701 -81.497139
804500000 -2.088877 -82.023193
805000000 -2.1542733 -82.599693
805500000 -2.218056 -83.166
806000000 -2.2904742 -83.768898
806500000 -2.3576112 -84.337494
807000000 -2.4371698 -84.916122
807500000 -2.5172253 -85.576286
808000000 -2.6034725 -86.206627
808500000 -2.6938074 -86.852226
809000000 -2.7894402 -87.518616
809500000 -2.8886211 -88.211945
810000000 -2.9899182 -88.925018
810500000 -3.1006508 -89.576347
811000000 -3.2122333 -90.28936
811500000 -3.335803 -91.023026
812000000 -3.459023 -91.730835
812500000 -3.5944226 -92.499496
813000000 -3.7391419 -93.290665
813500000 -3.8871694 -94.070595
814000000 -4.0429358 -94.842369
814500000 -4.2153654 -95.669838
815000000 -4.3956871 -96.492462
815500000 -4.5793581 -97.259705
816000000 -4.7814474 -98.123543
816500000 -4.9921222 -98.926971
817000000 -5.2160096 -99.790802
817500000 -5.4587178 -100.58607
818000000 -5.7039599 -101.44166
818500000 -5.9791875 -102.31184
819000000 -6.263587 -103.12057
819500000 -6.5699248 -103.96537
820000000 -6.8984475 -104.74563
820500000 -7.2509756 -105.58418
821000000 -7.6306338 -106.3092
821500000 -8.0399923 -107.06071
822000000 -8.4727421 -107.77718
822500000 -8.9443159 -108.37099
823000000 -9.4570751 -108.88141
823500000 -10.005258 -109.31766
824000000 -10.611526 -109.57893
824500000 -11.27361 -109.70122
825000000 -11.983912 -109.57848
825500000 -12.779207 -109.14834
826000000 -13.633107 -108.25032
826500000 -14.605493 -106.81342
827000000 -15.644043 -104.59232
827500000 -16.820507 -101.4016
828000000 -18.06138 -96.406799
828500000 -19.357323 -89.349831
829000000 -20.566866 -79.299698
829500000 -21.499222 -65.893028
830000000 -21.745398 -50.336445
830500000 -21.268705 -35.324642
831000000 -20.241037 -23.048893
831500000 -18.99482 -14.077581
832000000 -17.696589 -7.8827147
832500000 -16.493032 -3.6257508
833000000 -15.403471 -0.64775419
833500000 -14.419238 1.2404766
834000000 -13.523983 2.5466561
834500000 -12.694362 3.2654071
835000000 -11.965598 3.6852665
835500000 -11.290394 3.775449
836000000 -10.670659 3.6232979
836500000 -10.106722 3.3751705
837000000 -9.5949278 3.0289636
837500000 -9.1094294 2.5358622
838000000 -8.6744661 1.98861
838500000 -8.2560654 1.4034095
839000000 -7.8826971 0.78800291
839500000 -7.5231705 0.11111347
840000000 -7.1914682 -0.59710062
840500000 -6.889441 -1.3245115
841000000 -6.5911498 -1.997865
841500000 -6.3286843 -2.7370117
842000000 -6.0728106 -3.4857829
842500000 -5.8313665 -4.2081556
843000000 -5.6091309 -4.9199963
843500000 -5.3992147 -5.6523275
844000000 -5.1891932 -6.3664141
844500000 -4.9987874 -7.0838776
845000000 -4.8220773 -7.8108788
845500000 -4.6470251 -8.4460773
846000000 -4.485023 -9.1796064
846500000 -4.3312664 -9.8639278
847000000 -4.1801791 -10.509179
847500000 -4.041759 -11.193832
848000000 -3.9060776 -11.847673
848500000 -3.7819707 -12.505475
849000000 -3.667016 -13.179935
849500000 -3.5436392 -13.795399
850000000 -3.4307549 -14.369678
850500000 -3.3250244 -15.02073
851000000 -3.2313631 -15.643997
851500000 -3.1358521 -16.230724
852000000 -3.0426946 -16.809036
852500000 -2.9511018 -17.37281
853000000 -2.8729408 -17.965826
853500000 -2.7900803 -18.529776
854000000 -2.7150121 -19.07258
854500000 -2.6405959 -19.630978
855000000 -2.5741582 -20.124718
855500000 -2.5064976 -20.670855
856000000 -2.439719 -21.180855
856500000 -2.3820999 -21.6621
857000000 -2.3213625 -22.182791
857500000 -2.2608991 -22.678869
858000000 -2.2079017 -23.167175
858500000 -2.1609602 -23.617699
859000000 -2.0994859 -24.042393
859500000 -2.053432 -24.507713
860000000 -2.0107305 -24.940548
860500000 -1.9620366 -25.394112
861000000 -1.9155494 -25.84263
861500000 -1.8694805 -26.240753
862000000 -1.8357866 -26.640522
862500000 -1.7937849 -27.077309
863000000 -1.7536874 -27.521339
863500000 -1.714501 -27.909161
864000000 -1.6807775 -28.307173
864500000 -1.6460251 -28.701452
865000000 -1.612903 -29.089182
865500000 -1.5764018 -29.504475
866000000 -1.5476863 -29.862694
866500000 -1.5145341 -30.254795
867000000 -1.4872136 -30.607594
867500000 -1.462687 -30.975103
868000000 -1.4344209 -31.353109
868500000 -1.4022298 -31.710974
869000000 -1.3778003 -32.106785
869500000 -1.3506957 -32.3969
870000000 -1.3282204 -32.759251
870500000 -1.3087816 -33.096588
871000000 -1.2847987 -33.412006
871500000 -1.2652273 -33.743675
872000000 -1.243811 -34.116791
872500000 -1.2188529 -34.44722
873000000 -1.2032549 -34.747326
873500000 -1.1869836 -35.075081
874000000 -1.1653013 -35.359432
874500000 -1.1470811 -35.683796
875000000 -1.1326435 -36.018375
875500000 -1.1160052 -36.348042
876000000 -1.1003046 -36.604351
876500000 -1.0891075 -36.935875
877000000 -1.0678626 -37.199886
877500000 -1.0561478 -37.503056
878000000 -1.0406491 -37.785648
878500000 -1.0323215 -38.099564
879000000 -1.0117795 -38.365997
879500000 -1.0027951 -38.648701
880000000 -0.99084198 -38.947239
880500000 -0.9767772 -39.231796
881000000 -0.96468842 -39.485283
881500000 -0.95624894 -39.749531
882000000 -0.94526345 -39.999687
882500000 -0.93155247 -40.314579
883000000 -0.92161489 -40.583702
883500000 -0.91464841 -40.812981
884000000 -0.9030087 -41.112499
884500000 -0.89564085 -41.356796
885000000 -0.88651007 -41.608009
885500000 -0.87463862 -41.888668
886000000 -0.86906666 -42.117352
886500000 -0.86234105 -42.384205
887000000 -0.85744071 -42.64212
887500000 -0.84868443 -42.88802
888000000 -0.84560436 -43.111847
888500000 -0.83290565 -43.383469
889000000 -0.82852554 -43.629108
889500000 -0.81776774 -43.866879
890000000 -0.81592506 -44.084332
890500000 -0.80771214 -44.341728
891000000 -0.80369961 -44.601364
891500000 -0.79829907 -44.809437
892000000 -0.78771693 -45.047955
892500000 -0.7849732 -45.284885
893000000 -0.78176564 -45.50811
893500000 -0.77681881 -45.738544
894000000 -0.76869887 -45.986084
894500000 -0.76363176 -46.198246
895000000 -0.76009142 -46.449528
895500000 -0.75661319 -46.685062
896000000 -0.75307024 -46.889122
896500000 -0.74810189 -47.133297
897000000 -0.74311429 -47.355148
897500000 -0.74316496 -47.585407
898000000 -0.73730379 -47.774097
898500000 -0.73114973 -48.033855
899000000 -0.72716504 -48.250244
899500000 -0.72195876 -48.451359
900000000 -0.72296268 -48.668148
900500000 -0.71981651 -48.934303
901000000 -0.71106106 -49.14698
901500000 -0.71564502 -49.375553
902000000 -0.7079795 -49.602352
902500000 -0.7113989 -49.823311
903000000 -0.71096194 -50.066002
903500000 -0.70686018 -50.266693
904000000 -0.70246255 -50.474632
904500000 -0.69828159 -50.689671
905000000 -0.70104718 -50.934097
905500000 -0.69576299 -51.143719
906000000 -0.69391572 -51.393169
906500000 -0.6942966 -51.594971
907000000 -0.69732952 -51.826412
907500000 -0.69499463 -52.054573
908000000 -0.69360477 -52.278927
908500000 -0.69179183 -52.484936
909000000 -0.69609326 -52.703358
909500000 -0.69306207 -52.904278
910000000 -0.69160634 -53.15353
910500000 -0.69492048 -53.354237
911000000 -0.69437677 -53.587105
911500000 -0.69633788 -53.822098
912000000 -0.69627678 -54.023949
912500000 -0.69728637 -54.221088
913000000 -0.69938558 -54.449532
913500000 -0.70097506 -54.681923
914000000 -0.70350766 -54.887707
914500000 -0.7035287 -55.123978
915000000 -0.7072221 -55.321598
915500000 -0.71011776 -55.522667
916000000 -0.70636064 -55.779804
916500000 -0.71246016 -56.015892
917000000 -0.70865262 -56.228794
917500000 -0.71259558 -56.437336
918000000 -0.71379662 -56.653915
918500000 -0.71396899 -56.882641
919000000 -0.72132421 -57.093376
919500000 -0.72215801 -57.339909
920000000 -0.72246957 -57.546913
920500000 -0.72556168 -57.764763
921000000 -0.72732848 -58.003155
921500000 -0.73534131 -58.229828
922000000 -0.73844236 -58.473873
922500000 -0.73996669 -58.694939
923000000 -0.74269289 -58.929726
923500000 -0.74683291 -59.152485
924000000 -0.75519389 -59.391384
924500000 -0.75421661 -59.587978
925000000 -0.75890809 -59.80582
925500000 -0.76631665 -60.078667
926000000 -0.76996279 -60.289909
926500000 -0.77585369 -60.535816
927000000 -0.77710146 -60.761089
927500000 -0.78201634 -60.992962
928000000 -0.78894079 -61.248276
928500000 -0.79668695 -61.465092
929000000 -0.79533315 -61.701565
929500000 -0.80352581 -61.954994
930000000 -0.80991006 -62.191673
930500000 -0.81405038 -62.427307
931000000 -0.82179767 -62.696125
931500000 -0.82987529 -62.942303
932000000 -0.8288824 -63.163208
932500000 -0.83824432 -63.439632
933000000 -0.84781963 -63.669807
933500000 -0.85300773 -63.928883
934000000 -0.86077094 -64.19413
934500000 -0.86827999 -64.443733
935000000 -0.87182766 -64.690582
935500000 -0.88119936 -64.959389
936000000 -0.8905617 -65.225403
936500000 -0.89798778 -65.483047
937000000 -0.90511543 -65.763062
937500000 -0.91976249 -66.022209
938000000 -0.92332566 -66.296921
938500000 -0.93422806 -66.555237
939000000 -0.9448995 -66.814697
939500000 -0.95308584 -67.098473
940000000 -0.96345216 -67.408943
940500000 -0.974859 -67.658974
941000000 -0.98820025 -67.977905
941500000 -0.99800158 -68.228104
942000000 -1.0125276 -68.51075
942500000 -1.0203127 -68.828514
943000000 -1.0333315 -69.11422
943500000 -1.0494128 -69.413216
944000000 -1.064649 -69.691177
944500000 -1.0723866 -69.996956
945000000 -1.0892805 -70.31572
945500000 -1.1018938 -70.616119
946000000 -1.1163589 -70.933434
946500000 -1.1299943 -71.255997
947000000 -1.1450192 -71.558418
947500000 -1.1655357 -71.889977
948000000 -1.1784395 -72.204117
948500000 -1.1982565 -72.517838
949000000 -1.2160153 -72.865799
949500000 -1.2312983 -73.175217
950000000 -1.2517734 -73.512962
950500000 -1.2687566 -73.866325
951000000 -1.2912728 -74.229286
951500000 -1.3091239 -74.549278
952000000 -1.333693 -74.913094
952500000 -1.3556528 -75.2929
953000000 -1.3751061 -75.637985
953500000 -1.3975661 -75.971825
954000000 -1.4209758 -76.369217
954500000 -1.4512753 -76.724716
955000000 -1.471401 -77.117737
955500000 -1.4980001 -77.482994
956000000 -1.5278699 -77.868156
956500000 -1.5499986 -78.25116
957000000 -1.5824026 -78.656799
957500000 -1.61537 -79.078186
958000000 -1.6459086 -79.46875
958500000 -1.6779736 -79.887383
959000000 -1.7090942 -80.290016
959500000 -1.743734 -80.749557
960000000 -1.7784683 -81.160629
960500000 -1.8182368 -81.597679
961000000 -1.856366 -82.0354
961500000 -1.8956314 -82.502357
962000000 -1.9324312 -82.943161
962500000 -1.9771374 -83.400337
963000000 -2.0213771 -83.867004
963500000 -2.068423 -84.37661
964000000 -2.1140196 -84.829529
964500000 -2.164515 -85.291733
965000000 -2.2136924 -85.814941
965500000 -2.2713926 -86.30056
966000000 -2.3273911 -86.802536
966500000 -2.3866484 -87.323807
967000000 -2.4419932 -87.835999
967500000 -2.5072396 -88.347115
968000000 -2.569581 -88.897697
968500000 -2.6375797 -89.413246
969000000 -2.7074625 -89.96801
969500000 -2.7802701 -90.514221
970000000 -2.8580039 -91.0578
970500000 -2.9353061 -91.643738
971000000 -3.0189939 -92.201569
971500000 -3.1053002 -92.788284
972000000 -3.190825 -93.369003
972500000 -3.2852073 -93.949982
973000000 -3.3790543 -94.539856
973500000 -3.4825709 -95.139854
974000000 -3.5882177 -95.743637
974500000 -3.6986301 -96.334465
975000000 -3.8092957 -96.947273
975500000 -3.9292691 -97.602875
976000000 -4.0503888 -98.206512
976500000 -4.182528 -98.814934
977000000 -4.3160534 -99.441132
977500000 -4.4566951 -100.09202
978000000 -4.6093426 -100.71252
978500000 -4.7608905 -101.36782
979000000 -4.9233122 -102.00289
979500000 -5.0933595 -102.60684
980000000 -5.268662 -103.2546
980500000 -5.4538093 -103.88379
981000000 -5.6519046 -104.50672
981500000 -5.8553405 -105.11018
982000000 -6.0718002 -105.69988
982500000 -6.2949433 -106.27157
983000000 -6.5334377 -106.8593
983500000 -6.7796383 -107.3967
984000000 -7.0414348 -107.93905
984500000 -7.3185854 -108.38705
985000000 -7.6091652 -108.86704
985500000 -7.9166846 -109.30811
986000000 -8.2314959 -109.71225
986500000 -8.5707378 -110.04528
987000000 -8.9353361 -110.29663
987500000 -9.3108168 -110.42498
988000000 -9.7181892 -110.6093
988500000 -10.146773 -110.60687
989000000 -10.595499 -110.43884
989500000 -11.065172 -110.13766
990000000 -11.576468 -109.64462
990500000 -12.119959 -108.98442
991000000 -12.687846 -107.96555
991500000 -13.28091 -106.65526
992000000 -13.910948 -104.98495
992500000 -14.569577 -102.73294
993000000 -15.244291 -100.01014
993500000 -15.93078 -96.565269
994000000 -16.605606 -92.237213
994500000 -17.232437 -87.074615
995000000 -17.780993 -80.893501
995500000 -18.191208 -74.064285
996000000 -18.439764 -66.433289
996500000 -18.465622 -58.492661
997000000 -18.28146 -50.84866
997500000 -17.913441 -43.708416
998000000 -17.401026 -37.462982
998500000 -16.798025 -32.174923
999000000 -16.153643 -27.652716
999500000 -15.489642 -24.065317
1000000000 -14.827819 -21.244476
1000500000 -14.189847 -18.825397
1001000000 -13.5766 -17.049068
1001500000 -12.991169 -15.609306
1002000000 -12.441833 -14.611909
1002500000 -11.90677 -13.755739
1003000000 -11.420363 -13.224039
1003500000 -10.942687 -12.895346
1004000000 -10.505591 -12.639777
1004500000 -10.086251 -12.489944
1005000000 -9.6910486 -12.556235
1005500000 -9.3214931 -12.623432
1006000000 -8.9631081 -12.896126
1006500000 -8.6323433 -13.137467
