!Keysight Technologies,P9371A,MY57212015,Z.15.41.75
!Date: Wednesday, May 04, 2022 11:36:35
!Correction: S11(C  1-Port  ) 
!S1P File: Measurement: S11:
# Hz S  dB   R 50
700000000 -4.8525634 -135.62288
700500000 -4.9323454 -136.41069
701000000 -5.0263257 -137.19597
701500000 -5.1180263 -137.96391
702000000 -5.207767 -138.69666
702500000 -5.3046851 -139.52417
703000000 -5.3910131 -140.31898
703500000 -5.4847846 -141.11029
704000000 -5.5931501 -141.92479
704500000 -5.6843929 -142.74843
705000000 -5.7753944 -143.51814
705500000 -5.8757944 -144.32256
706000000 -5.9767179 -145.19392
706500000 -6.0745673 -146.06689
707000000 -6.1718845 -146.88196
707500000 -6.2819219 -147.73592
708000000 -6.3725343 -148.64116
708500000 -6.4760475 -149.54605
709000000 -6.5766306 -150.42282
709500000 -6.6726661 -151.37624
710000000 -6.7888374 -152.34532
710500000 -6.8847132 -153.40608
711000000 -6.991869 -154.45238
711500000 -7.0968509 -155.49878
712000000 -7.209599 -156.57903
712500000 -7.3222904 -157.62329
713000000 -7.4405622 -158.73895
713500000 -7.5480843 -159.87427
714000000 -7.6666479 -161.01204
714500000 -7.7848034 -162.15192
715000000 -7.8938289 -163.30965
715500000 -8.0145044 -164.59137
716000000 -8.132452 -165.80891
716500000 -8.2532587 -167.14168
717000000 -8.3795156 -168.43378
717500000 -8.4945011 -169.79985
718000000 -8.6221266 -171.19656
718500000 -8.7447376 -172.64113
719000000 -8.8743076 -174.11259
719500000 -9.0066805 -175.64354
720000000 -9.1334953 -177.16304
720500000 -9.2705841 -178.74094
721000000 -9.4062538 179.64378
721500000 -9.5433712 178.09694
722000000 -9.6799965 176.4147
722500000 -9.8115396 174.7289
723000000 -9.9439783 172.99083
723500000 -10.070824 171.28748
724000000 -10.206495 169.51373
724500000 -10.335177 167.62198
725000000 -10.470868 165.70502
725500000 -10.593795 163.81227
726000000 -10.720508 161.91356
726500000 -10.835026 159.84688
727000000 -10.949364 157.83331
727500000 -11.067892 155.80923
728000000 -11.158617 153.69873
728500000 -11.262937 151.52357
729000000 -11.354718 149.34308
729500000 -11.445939 147.01349
730000000 -11.526752 144.79414
730500000 -11.615254 142.35962
731000000 -11.694097 139.98991
731500000 -11.767915 137.57008
732000000 -11.831834 135.20894
732500000 -11.895945 132.76154
733000000 -11.951876 130.37289
733500000 -12.003623 127.9517
734000000 -12.049442 125.54726
734500000 -12.08155 123.16484
735000000 -12.109174 120.81487
735500000 -12.130183 118.42793
736000000 -12.133816 116.19175
736500000 -12.125484 113.8922
737000000 -12.115506 111.65929
737500000 -12.089176 109.47037
738000000 -12.049418 107.24089
738500000 -11.997442 105.11166
739000000 -11.945212 103.02196
739500000 -11.884209 100.86823
740000000 -11.802666 98.845444
740500000 -11.723466 96.842422
741000000 -11.624056 94.783203
741500000 -11.522841 92.807686
742000000 -11.419933 90.846886
742500000 -11.315779 88.953362
743000000 -11.199612 87.055679
743500000 -11.078338 85.159653
744000000 -10.959809 83.275871
744500000 -10.839134 81.482491
745000000 -10.717311 79.678284
745500000 -10.58889 77.909676
746000000 -10.464268 76.240288
746500000 -10.338914 74.570282
747000000 -10.211564 72.915573
747500000 -10.087517 71.358543
748000000 -9.9582577 69.758331
748500000 -9.8383741 68.17791
749000000 -9.7076349 66.672462
749500000 -9.5911074 65.154366
750000000 -9.4699202 63.709034
750500000 -9.3512993 62.396786
751000000 -9.2274828 61.050163
751500000 -9.1150255 59.687759
752000000 -8.9948692 58.419632
752500000 -8.8797588 57.173264
753000000 -8.7539482 55.939259
753500000 -8.6415462 54.751068
754000000 -8.5275249 53.568977
754500000 -8.4055834 52.423233
755000000 -8.2886038 51.284512
755500000 -8.1724806 50.202251
756000000 -8.0571318 49.097363
756500000 -7.9445119 48.02013
757000000 -7.8322711 46.979443
757500000 -7.7269702 45.936283
758000000 -7.6127524 44.862118
758500000 -7.5110946 43.86594
759000000 -7.4104223 42.875023
759500000 -7.3062911 41.857922
760000000 -7.2082176 40.923496
760500000 -7.1172371 39.950142
761000000 -7.0223336 39.062763
761500000 -6.9403076 38.185379
762000000 -6.8453007 37.279976
762500000 -6.7582827 36.461857
763000000 -6.6705198 35.599819
763500000 -6.5857816 34.809132
764000000 -6.4981866 34.056942
764500000 -6.4140344 33.29475
765000000 -6.325788 32.534706
765500000 -6.2374816 31.816317
766000000 -6.1485562 31.088297
766500000 -6.0625086 30.341425
767000000 -5.9688201 29.655094
767500000 -5.8771195 28.932682
768000000 -5.7979507 28.200115
768500000 -5.7049851 27.542439
769000000 -5.6279497 26.76865
769500000 -5.5380335 26.04771
770000000 -5.4539814 25.37178
770500000 -5.3799715 24.615343
771000000 -5.3065214 23.874128
771500000 -5.2309265 23.201279
772000000 -5.1630678 22.441591
772500000 -5.087256 21.812407
773000000 -5.0186172 21.07865
773500000 -4.9613338 20.444323
774000000 -4.8914423 19.779049
774500000 -4.832561 19.119999
775000000 -4.7659521 18.549961
775500000 -4.7044597 17.916964
776000000 -4.6396861 17.291655
776500000 -4.5732541 16.662109
777000000 -4.5157313 16.067156
777500000 -4.4593592 15.446394
778000000 -4.4032235 14.848185
778500000 -4.3450012 14.268538
779000000 -4.2872324 13.7011
779500000 -4.2343378 13.104115
780000000 -4.1788783 12.533542
780500000 -4.1266508 11.946632
781000000 -4.0735049 11.389771
781500000 -4.025485 10.791833
782000000 -3.9695706 10.236783
782500000 -3.9293108 9.7201853
783000000 -3.8775177 9.1832876
783500000 -3.8333774 8.610796
784000000 -3.7860825 8.0920963
784500000 -3.7446954 7.5548782
785000000 -3.6992152 7.0515919
785500000 -3.6627688 6.5221386
786000000 -3.6162481 5.9804425
786500000 -3.5746651 5.5343952
787000000 -3.532511 5.0263872
787500000 -3.4953237 4.5311179
788000000 -3.4565547 4.0598426
788500000 -3.4197984 3.608674
789000000 -3.3798623 3.1121335
789500000 -3.3423004 2.6846542
790000000 -3.308645 2.1789603
790500000 -3.2704186 1.739117
791000000 -3.2302213 1.332795
791500000 -3.1966524 0.85769689
792000000 -3.1568506 0.40523854
792500000 -3.1245589 0.0054979874
793000000 -3.0880415 -0.4424156
793500000 -3.0527539 -0.89008564
794000000 -3.0107424 -1.3302779
794500000 -2.9763212 -1.7636472
795000000 -2.9457686 -2.2200813
795500000 -2.9130297 -2.6547859
796000000 -2.8754687 -3.0672777
796500000 -2.846468 -3.4996219
797000000 -2.8113976 -3.9871132
797500000 -2.7820117 -4.402348
798000000 -2.7538724 -4.8166819
798500000 -2.715744 -5.2236772
799000000 -2.693902 -5.6393881
799500000 -2.6658947 -6.0963421
800000000 -2.6390462 -6.5056572
800500000 -2.6070149 -6.9086032
801000000 -2.5928247 -7.3207617
801500000 -2.5634286 -7.7417932
802000000 -2.5424447 -8.1499815
802500000 -2.5164549 -8.5823679
803000000 -2.4987254 -8.9397345
803500000 -2.4755666 -9.2832804
804000000 -2.4493041 -9.6683655
804500000 -2.4291904 -10.04962
805000000 -2.4034405 -10.453147
805500000 -2.3873794 -10.795259
806000000 -2.3610818 -11.169378
806500000 -2.3380587 -11.510551
807000000 -2.318362 -11.867085
807500000 -2.2933078 -12.229244
808000000 -2.2744303 -12.623394
808500000 -2.2565355 -12.940034
809000000 -2.2384646 -13.298139
809500000 -2.2170095 -13.680776
810000000 -2.2036688 -13.963357
810500000 -2.1773751 -14.366
811000000 -2.1543357 -14.740561
811500000 -2.1357973 -15.108495
812000000 -2.1157389 -15.417135
812500000 -2.1013405 -15.73907
813000000 -2.0833895 -16.058907
813500000 -2.0665579 -16.452124
814000000 -2.050313 -16.790632
814500000 -2.0306966 -17.154955
815000000 -2.015377 -17.430861
815500000 -1.9990404 -17.787132
816000000 -1.9826643 -18.130453
816500000 -1.9686712 -18.449741
817000000 -1.9554483 -18.740082
817500000 -1.9431101 -19.105448
818000000 -1.9209021 -19.397594
818500000 -1.9073249 -19.749432
819000000 -1.8946952 -20.026249
819500000 -1.8755461 -20.352245
820000000 -1.8592367 -20.695431
820500000 -1.8516933 -21.006369
821000000 -1.8387374 -21.287586
821500000 -1.8204635 -21.643225
822000000 -1.810441 -21.982759
822500000 -1.7954942 -22.230637
823000000 -1.783011 -22.601311
823500000 -1.7691442 -22.90032
824000000 -1.7603002 -23.199034
824500000 -1.7485944 -23.514181
825000000 -1.7368687 -23.817743
825500000 -1.7247679 -24.157484
826000000 -1.7152401 -24.463079
826500000 -1.7019198 -24.76088
827000000 -1.6910396 -25.036688
827500000 -1.6853074 -25.339788
828000000 -1.6769764 -25.64377
828500000 -1.6698682 -25.969381
829000000 -1.6606213 -26.26927
829500000 -1.6524887 -26.526672
830000000 -1.6447668 -26.820045
830500000 -1.637014 -27.140253
831000000 -1.6264278 -27.425585
831500000 -1.6131496 -27.673567
832000000 -1.6100188 -27.980705
832500000 -1.6055752 -28.306953
833000000 -1.592523 -28.527615
833500000 -1.5907819 -28.848623
834000000 -1.582249 -29.103794
834500000 -1.5734484 -29.383221
835000000 -1.566056 -29.652679
835500000 -1.5619831 -29.914661
836000000 -1.5551149 -30.210535
836500000 -1.5510329 -30.450302
837000000 -1.5431479 -30.728762
837500000 -1.5404319 -30.999056
838000000 -1.5341558 -31.238735
838500000 -1.5285938 -31.511631
839000000 -1.5189557 -31.788418
839500000 -1.5182712 -32.058952
840000000 -1.5135902 -32.324497
840500000 -1.5074874 -32.57077
841000000 -1.5001819 -32.841743
841500000 -1.4927539 -33.123882
842000000 -1.4964595 -33.366238
842500000 -1.4872756 -33.634216
843000000 -1.4813006 -33.868698
843500000 -1.4771622 -34.108795
844000000 -1.4743501 -34.354057
844500000 -1.4693218 -34.601768
845000000 -1.4670844 -34.859642
845500000 -1.4579015 -35.135326
846000000 -1.4542445 -35.329029
846500000 -1.4501311 -35.586788
847000000 -1.4468913 -35.875206
847500000 -1.4395179 -36.091934
848000000 -1.4357369 -36.371086
848500000 -1.4292412 -36.584637
849000000 -1.4314052 -36.838501
849500000 -1.4228009 -37.086285
850000000 -1.4217658 -37.336029
850500000 -1.4224176 -37.590874
851000000 -1.4155467 -37.830551
851500000 -1.4151038 -38.107777
852000000 -1.4064511 -38.346378
852500000 -1.4099969 -38.590549
853000000 -1.4020499 -38.808296
853500000 -1.4021254 -39.102325
854000000 -1.3959864 -39.297848
854500000 -1.3947135 -39.535824
855000000 -1.396427 -39.790802
855500000 -1.3909172 -40.007973
856000000 -1.3886214 -40.238091
856500000 -1.3908658 -40.489147
857000000 -1.3906134 -40.730568
857500000 -1.3836879 -40.963676
858000000 -1.386225 -41.198528
858500000 -1.383805 -41.406403
859000000 -1.3785341 -41.65353
859500000 -1.3776983 -41.873779
860000000 -1.3791099 -42.085533
860500000 -1.3786721 -42.322395
861000000 -1.378346 -42.551964
861500000 -1.3714539 -42.792492
862000000 -1.3755573 -42.959469
862500000 -1.3708742 -43.211678
863000000 -1.3688916 -43.430496
863500000 -1.3609792 -43.65797
864000000 -1.3639964 -43.906017
864500000 -1.3554063 -44.109039
865000000 -1.3596748 -44.330315
865500000 -1.3514791 -44.570644
866000000 -1.3520745 -44.804192
866500000 -1.3480066 -45.014889
867000000 -1.3429127 -45.233696
867500000 -1.3451728 -45.493294
868000000 -1.3449247 -45.743504
868500000 -1.3408177 -45.94986
869000000 -1.3379444 -46.158455
869500000 -1.3354976 -46.404839
870000000 -1.331678 -46.64946
870500000 -1.3290224 -46.863331
871000000 -1.3255802 -47.093956
871500000 -1.3290893 -47.332439
872000000 -1.3215648 -47.540779
872500000 -1.31779 -47.785446
873000000 -1.3196063 -48.004883
873500000 -1.3170784 -48.285435
874000000 -1.3162868 -48.485241
874500000 -1.3109086 -48.72662
875000000 -1.3077925 -48.961754
875500000 -1.3113286 -49.239571
876000000 -1.3102392 -49.459496
876500000 -1.3071511 -49.694553
877000000 -1.3105353 -49.928989
877500000 -1.3034263 -50.166763
878000000 -1.3014375 -50.433979
878500000 -1.3002605 -50.651562
879000000 -1.3018224 -50.913872
879500000 -1.3021421 -51.148296
880000000 -1.3019567 -51.382416
880500000 -1.302139 -51.653412
881000000 -1.3007659 -51.881569
881500000 -1.296707 -52.123016
882000000 -1.3039151 -52.33857
882500000 -1.3027536 -52.642338
883000000 -1.3037132 -52.880486
883500000 -1.2970057 -53.107803
884000000 -1.3047684 -53.378517
884500000 -1.3058516 -53.604591
885000000 -1.3038582 -53.861496
885500000 -1.3054005 -54.101089
886000000 -1.3041762 -54.33202
886500000 -1.310816 -54.589802
887000000 -1.3078871 -54.852875
887500000 -1.3056756 -55.091351
888000000 -1.3124943 -55.341034
888500000 -1.3140144 -55.609428
889000000 -1.3141489 -55.867207
889500000 -1.3136827 -56.09679
890000000 -1.316718 -56.325218
890500000 -1.3186734 -56.616222
891000000 -1.3219301 -56.843632
891500000 -1.3228626 -57.101402
892000000 -1.3180705 -57.353569
892500000 -1.3241705 -57.643711
893000000 -1.3269552 -57.882153
893500000 -1.3296416 -58.16423
894000000 -1.3296032 -58.39275
894500000 -1.3356948 -58.662304
895000000 -1.333403 -58.916992
895500000 -1.3381974 -59.180115
896000000 -1.3404454 -59.452766
896500000 -1.3410214 -59.709263
897000000 -1.3439577 -59.964794
897500000 -1.3490441 -60.227032
898000000 -1.3539847 -60.497669
898500000 -1.355216 -60.753223
899000000 -1.3575345 -61.048409
899500000 -1.3608265 -61.295834
900000000 -1.3637149 -61.569901
900500000 -1.3696187 -61.837452
901000000 -1.3714234 -62.11734
901500000 -1.3747658 -62.366798
902000000 -1.3752272 -62.675476
902500000 -1.3776677 -62.955841
903000000 -1.3836796 -63.227123
903500000 -1.3886007 -63.498165
904000000 -1.3921465 -63.798885
904500000 -1.3966712 -64.07756
905000000 -1.4005444 -64.361351
905500000 -1.4055104 -64.67749
906000000 -1.4095341 -64.943451
906500000 -1.4143211 -65.236137
907000000 -1.4195527 -65.540482
907500000 -1.4239002 -65.825798
908000000 -1.4283384 -66.133896
908500000 -1.4388547 -66.445717
909000000 -1.4444474 -66.715073
909500000 -1.4482493 -67.067841
910000000 -1.4594169 -67.330704
910500000 -1.4633874 -67.657677
911000000 -1.4754108 -67.95723
911500000 -1.4795133 -68.271454
912000000 -1.4885875 -68.557205
912500000 -1.4937867 -68.857231
913000000 -1.5057154 -69.166634
913500000 -1.5115374 -69.492599
914000000 -1.5205333 -69.776566
914500000 -1.52872 -70.097321
915000000 -1.5382353 -70.430153
915500000 -1.5438499 -70.744987
916000000 -1.5516486 -71.058937
916500000 -1.5619237 -71.345001
917000000 -1.5721344 -71.680862
917500000 -1.5794768 -72.005997
918000000 -1.5927262 -72.346947
918500000 -1.6022724 -72.63887
919000000 -1.6101111 -72.994125
919500000 -1.6164851 -73.288002
920000000 -1.6304327 -73.603577
920500000 -1.6427042 -73.987343
921000000 -1.6485326 -74.298752
921500000 -1.6622968 -74.629547
922000000 -1.6692269 -74.951912
922500000 -1.6831473 -75.309731
923000000 -1.693343 -75.650879
923500000 -1.7050489 -76.013405
924000000 -1.7153547 -76.347694
924500000 -1.7326961 -76.691551
925000000 -1.7462865 -77.035934
925500000 -1.7497301 -77.411087
926000000 -1.7653673 -77.745438
926500000 -1.7762042 -78.118927
927000000 -1.7923098 -78.494141
927500000 -1.8050261 -78.83857
928000000 -1.8168993 -79.199158
928500000 -1.8301656 -79.577431
929000000 -1.8425993 -79.928299
929500000 -1.8582104 -80.330597
930000000 -1.8721671 -80.709145
930500000 -1.8884745 -81.093384
931000000 -1.9009409 -81.445938
931500000 -1.9174752 -81.836456
932000000 -1.9317251 -82.241318
932500000 -1.9465282 -82.619308
933000000 -1.9639542 -83.034996
933500000 -1.9818066 -83.41526
934000000 -1.9956869 -83.807671
934500000 -2.0118361 -84.232315
935000000 -2.0259237 -84.62751
935500000 -2.0450442 -85.026962
936000000 -2.0638018 -85.47229
936500000 -2.0765784 -85.877892
937000000 -2.0965679 -86.308548
937500000 -2.1146376 -86.745338
938000000 -2.1297336 -87.155251
938500000 -2.1496396 -87.599525
939000000 -2.1671541 -88.045746
939500000 -2.1875608 -88.498291
940000000 -2.2125075 -88.953156
940500000 -2.2297516 -89.430084
941000000 -2.2482862 -89.882088
941500000 -2.2700207 -90.362617
942000000 -2.2930722 -90.825035
942500000 -2.31528 -91.295349
943000000 -2.3401778 -91.780151
943500000 -2.3651981 -92.267891
944000000 -2.3857346 -92.766045
944500000 -2.413799 -93.256805
945000000 -2.4402792 -93.731834
945500000 -2.4691181 -94.220398
946000000 -2.4932156 -94.768784
946500000 -2.5162618 -95.256104
947000000 -2.5431073 -95.73204
947500000 -2.5708258 -96.26413
948000000 -2.6019053 -96.764999
948500000 -2.6295249 -97.321594
949000000 -2.6530893 -97.864044
949500000 -2.6845918 -98.400887
950000000 -2.7183614 -98.942085
950500000 -2.7451706 -99.513138
951000000 -2.7770121 -100.07648
951500000 -2.8083227 -100.64745
952000000 -2.8423002 -101.20449
952500000 -2.8769014 -101.78907
953000000 -2.9106717 -102.35014
953500000 -2.9431052 -102.94064
954000000 -2.9789424 -103.56934
954500000 -3.0104952 -104.16717
955000000 -3.0533905 -104.7709
955500000 -3.0857244 -105.3797
956000000 -3.1262619 -105.98804
956500000 -3.1645739 -106.62398
957000000 -3.203182 -107.25367
957500000 -3.2403421 -107.92082
958000000 -3.2828043 -108.53969
958500000 -3.3156016 -109.1865
959000000 -3.3595846 -109.907
959500000 -3.4060564 -110.5518
960000000 -3.4468837 -111.24828
960500000 -3.4882519 -111.92157
961000000 -3.536618 -112.6505
961500000 -3.574877 -113.34133
962000000 -3.6227555 -114.06419
962500000 -3.6684535 -114.81477
963000000 -3.7152369 -115.55866
963500000 -3.7610505 -116.3316
964000000 -3.8136878 -117.10215
964500000 -3.8626313 -117.88463
965000000 -3.9149849 -118.67777
965500000 -3.9606967 -119.49066
966000000 -4.0179806 -120.27853
966500000 -4.0689754 -121.13049
967000000 -4.1275706 -121.99188
967500000 -4.1827726 -122.84015
968000000 -4.241251 -123.68926
968500000 -4.2975097 -124.5864
969000000 -4.3608932 -125.45242
969500000 -4.4171653 -126.32719
970000000 -4.4826064 -127.28304
970500000 -4.5452533 -128.19818
971000000 -4.6073027 -129.13237
971500000 -4.6729879 -130.11142
972000000 -4.7374234 -131.07388
972500000 -4.8040533 -132.03476
973000000 -4.8725471 -133.03708
973500000 -4.9395428 -134.06557
974000000 -5.0066509 -135.10565
974500000 -5.0726542 -136.18245
975000000 -5.1466908 -137.25909
975500000 -5.2163997 -138.36943
976000000 -5.2910123 -139.46611
976500000 -5.3614364 -140.62047
977000000 -5.438982 -141.75095
977500000 -5.5139542 -142.9715
978000000 -5.5910025 -144.2124
978500000 -5.6693397 -145.45537
979000000 -5.7427406 -146.69353
979500000 -5.8346205 -148.02998
980000000 -5.9248796 -149.34569
980500000 -6.0151601 -150.69798
981000000 -6.1034431 -152.07957
981500000 -6.1994257 -153.43517
982000000 -6.2976594 -154.84402
982500000 -6.3977504 -156.23746
983000000 -6.4997158 -157.66631
983500000 -6.5993824 -159.08168
984000000 -6.7025537 -160.50218
984500000 -6.8031254 -161.93449
985000000 -6.8933177 -163.39566
985500000 -7.0016637 -164.88873
986000000 -7.0981059 -166.34042
986500000 -7.1892571 -167.86685
987000000 -7.2807369 -169.41037
987500000 -7.371532 -171.00475
988000000 -7.4640579 -172.59793
988500000 -7.5494671 -174.21738
989000000 -7.6360703 -175.87387
989500000 -7.7175512 -177.54924
990000000 -7.8038363 -179.25705
990500000 -7.8856559 179.04198
991000000 -7.9514241 177.23056
991500000 -8.0232458 175.45424
992000000 -8.0908031 173.6857
992500000 -8.1596107 171.79907
993000000 -8.2207203 169.91695
993500000 -8.2748079 168.03442
994000000 -8.3395739 166.08951
994500000 -8.3799038 164.07042
995000000 -8.4286785 162.12039
995500000 -8.4645672 160.0726
996000000 -8.4906292 158.01817
996500000 -8.5275459 155.9727
997000000 -8.550498 153.86694
997500000 -8.5692911 151.77875
998000000 -8.5867167 149.63867
998500000 -8.6042976 147.50835
999000000 -8.6102982 145.321
999500000 -8.6110735 143.14662
1000000000 -8.6039658 140.96341
1000500000 -8.5885305 138.76454
1001000000 -8.5751801 136.61763
1001500000 -8.5595675 134.44949
1002000000 -8.540884 132.23872
1002500000 -8.5021286 130.06906
1003000000 -8.4732037 127.88607
1003500000 -8.4360895 125.74003
1004000000 -8.3890162 123.62608
