!Keysight Technologies,P9371A,MY57212015,Z.15.41.75
!Date: Thursday, May 12, 2022 07:55:28
!Correction: S11(C  1-Port  ) 
!S1P File: Measurement: S11:
# Hz S  dB   R 50
700000000 -0.33624232 -55.278214
700500000 -0.34018952 -55.420029
701000000 -0.34343565 -55.577736
701500000 -0.34856537 -55.731659
702000000 -0.35260183 -55.881371
702500000 -0.35725808 -56.030762
703000000 -0.35522711 -56.196545
703500000 -0.35793549 -56.326794
704000000 -0.3669191 -56.510742
704500000 -0.36552981 -56.648148
705000000 -0.37190884 -56.820049
705500000 -0.36737293 -56.984879
706000000 -0.37725893 -57.136379
706500000 -0.38174668 -57.30962
707000000 -0.38289154 -57.451603
707500000 -0.3877576 -57.616116
708000000 -0.3893556 -57.791119
708500000 -0.39428815 -57.956642
709000000 -0.39863691 -58.11937
709500000 -0.40144348 -58.286568
710000000 -0.40418059 -58.460873
710500000 -0.41048211 -58.620255
711000000 -0.40971082 -58.75309
711500000 -0.42030516 -58.949314
712000000 -0.4211536 -59.12571
712500000 -0.42851508 -59.301262
713000000 -0.43137336 -59.460186
713500000 -0.43277243 -59.632935
714000000 -0.43829429 -59.817535
714500000 -0.44514713 -59.987885
715000000 -0.44928506 -60.150753
715500000 -0.46014538 -60.338833
716000000 -0.45896646 -60.530399
716500000 -0.4653374 -60.732792
717000000 -0.46718186 -60.898041
717500000 -0.46883044 -61.048622
718000000 -0.47779468 -61.268028
718500000 -0.48440629 -61.465794
719000000 -0.4886516 -61.633633
719500000 -0.4953143 -61.826538
720000000 -0.50174725 -62.024872
720500000 -0.50759929 -62.21452
721000000 -0.51104558 -62.400013
721500000 -0.51606208 -62.598392
722000000 -0.52090406 -62.776386
722500000 -0.52784449 -62.986866
723000000 -0.53264195 -63.207546
723500000 -0.54247069 -63.405937
724000000 -0.54672301 -63.623089
724500000 -0.55203605 -63.815136
725000000 -0.56282049 -64.024612
725500000 -0.57013583 -64.216843
726000000 -0.57362384 -64.422913
726500000 -0.58077604 -64.662262
727000000 -0.5859037 -64.900742
727500000 -0.59380734 -65.067261
728000000 -0.60021406 -65.297592
728500000 -0.60756356 -65.54528
729000000 -0.61235338 -65.782539
729500000 -0.62393284 -65.979118
730000000 -0.62696391 -66.210709
730500000 -0.64171958 -66.467003
731000000 -0.64518148 -66.694565
731500000 -0.6569621 -66.913979
732000000 -0.65929532 -67.160583
732500000 -0.67250133 -67.3964
733000000 -0.68477827 -67.648254
733500000 -0.69093132 -67.89341
734000000 -0.7024017 -68.153076
734500000 -0.71186912 -68.387856
735000000 -0.72160965 -68.644943
735500000 -0.73557836 -68.913437
736000000 -0.74642467 -69.14283
736500000 -0.75694317 -69.403633
737000000 -0.76319754 -69.703766
737500000 -0.77738905 -69.966507
738000000 -0.78715467 -70.260643
738500000 -0.79792261 -70.496185
739000000 -0.81147838 -70.776863
739500000 -0.8230859 -71.063248
740000000 -0.84008676 -71.358139
740500000 -0.84990543 -71.640991
741000000 -0.86726052 -71.915329
741500000 -0.87690485 -72.228691
742000000 -0.88928413 -72.525551
742500000 -0.9038316 -72.825134
743000000 -0.92129105 -73.150826
743500000 -0.93583202 -73.456329
744000000 -0.95222545 -73.788017
744500000 -0.9667111 -74.093155
745000000 -0.98049867 -74.431404
745500000 -0.99433959 -74.744431
746000000 -1.0133898 -75.095116
746500000 -1.032902 -75.417068
747000000 -1.054054 -75.78933
747500000 -1.067893 -76.120834
748000000 -1.0929129 -76.483101
748500000 -1.1138057 -76.872742
749000000 -1.1305642 -77.218079
749500000 -1.1492274 -77.586479
750000000 -1.1729076 -77.990799
750500000 -1.1995283 -78.37867
751000000 -1.2175751 -78.758469
751500000 -1.2406588 -79.163254
752000000 -1.2660609 -79.548225
752500000 -1.289355 -79.968597
753000000 -1.320845 -80.397041
753500000 -1.346663 -80.824348
754000000 -1.3725786 -81.259415
754500000 -1.4031469 -81.71711
755000000 -1.4299165 -82.163643
755500000 -1.4597454 -82.632591
756000000 -1.4955462 -83.14772
756500000 -1.5278957 -83.607025
757000000 -1.5617038 -84.095314
757500000 -1.5964373 -84.598541
758000000 -1.6348375 -85.105034
758500000 -1.6742047 -85.625175
759000000 -1.7182943 -86.195175
759500000 -1.7614969 -86.727959
760000000 -1.8044118 -87.27523
760500000 -1.8539658 -87.817108
761000000 -1.9030383 -88.401688
761500000 -1.9539006 -89.005844
762000000 -2.0029795 -89.576447
762500000 -2.0601342 -90.212677
763000000 -2.1140487 -90.830872
763500000 -2.1745358 -91.457504
764000000 -2.235456 -92.104065
764500000 -2.299005 -92.779625
765000000 -2.3723383 -93.459923
765500000 -2.4402916 -94.184792
766000000 -2.5120056 -94.870796
766500000 -2.5918002 -95.616074
767000000 -2.6713982 -96.358063
767500000 -2.763449 -97.126396
768000000 -2.8464615 -97.89193
768500000 -2.9462256 -98.677002
769000000 -3.0467756 -99.478134
769500000 -3.1469517 -100.29839
770000000 -3.2512393 -101.12761
770500000 -3.3692677 -101.93086
771000000 -3.4815254 -102.85326
771500000 -3.6079655 -103.70465
772000000 -3.7369907 -104.61753
772500000 -3.872679 -105.5558
773000000 -4.0139856 -106.52337
773500000 -4.1670136 -107.49377
774000000 -4.3211436 -108.48589
774500000 -4.484961 -109.5206
775000000 -4.6566644 -110.56573
775500000 -4.8411341 -111.68082
776000000 -5.0361996 -112.78845
776500000 -5.2463727 -113.92422
777000000 -5.4642792 -115.08225
777500000 -5.6951056 -116.31484
778000000 -5.9357381 -117.57873
778500000 -6.1975656 -118.79498
779000000 -6.4700208 -120.10407
779500000 -6.7662244 -121.44894
780000000 -7.0722489 -122.8548
780500000 -7.4044127 -124.26247
781000000 -7.762713 -125.72166
781500000 -8.13908 -127.27047
782000000 -8.5465355 -128.83049
782500000 -8.9750595 -130.51019
783000000 -9.4557533 -132.27475
783500000 -9.9607811 -134.08659
784000000 -10.514907 -136.05856
784500000 -11.115581 -138.02245
785000000 -11.780044 -140.23869
785500000 -12.507835 -142.49425
786000000 -13.313307 -145.08597
786500000 -14.204502 -147.90424
787000000 -15.210931 -151.09811
787500000 -16.337372 -154.82231
788000000 -17.650625 -159.46037
788500000 -19.146858 -165.31325
789000000 -20.894279 -173.28224
789500000 -22.868984 175.35049
790000000 -24.8771 158.21733
790500000 -26.231251 132.30966
791000000 -25.826971 104.1526
791500000 -24.016815 81.801872
792000000 -21.950951 67.431198
792500000 -20.091715 57.843678
793000000 -18.424189 50.920967
793500000 -17.008446 45.641983
794000000 -15.77176 41.472599
794500000 -14.695944 37.879684
795000000 -13.740845 34.809242
795500000 -12.885979 32.122349
796000000 -12.113797 29.587885
796500000 -11.419625 27.257721
797000000 -10.78163 25.145952
797500000 -10.190522 23.128525
798000000 -9.6674442 21.234964
798500000 -9.1560059 19.401978
799000000 -8.7139311 17.619442
799500000 -8.2773952 15.991828
800000000 -7.8768339 14.343498
800500000 -7.5193748 12.775378
801000000 -7.1684875 11.258669
801500000 -6.847393 9.7519684
802000000 -6.5511746 8.3804398
802500000 -6.2652416 7.0214853
803000000 -6.0087767 5.68606
803500000 -5.7526746 4.3777227
804000000 -5.5222015 3.1116784
804500000 -5.2964554 1.837662
805000000 -5.0899181 0.68445438
805500000 -4.895442 -0.52830541
806000000 -4.707799 -1.6512004
806500000 -4.5317731 -2.7976456
807000000 -4.3652124 -3.8655353
807500000 -4.2054076 -4.8946528
808000000 -4.0532126 -5.9578509
808500000 -3.9105322 -6.9154763
809000000 -3.7746956 -7.9276443
809500000 -3.6509454 -8.9178886
810000000 -3.5256991 -9.868124
810500000 -3.4106665 -10.791309
811000000 -3.3033812 -11.653802
811500000 -3.1970551 -12.534845
812000000 -3.0953376 -13.391953
812500000 -3.0052478 -14.21672
813000000 -2.9075809 -15.023376
813500000 -2.8266211 -15.819903
814000000 -2.7421007 -16.613686
814500000 -2.6586764 -17.381483
815000000 -2.5793846 -18.16736
815500000 -2.5063539 -18.927202
816000000 -2.4426687 -19.593321
816500000 -2.377687 -20.331219
817000000 -2.31534 -21.003531
817500000 -2.2512255 -21.681618
818000000 -2.1979115 -22.384008
818500000 -2.1382418 -23.058794
819000000 -2.0794835 -23.698809
819500000 -2.0313888 -24.347229
820000000 -1.9841287 -24.938017
820500000 -1.9389741 -25.561878
821000000 -1.8973436 -26.176268
821500000 -1.8496339 -26.74811
822000000 -1.8094804 -27.331997
822500000 -1.7641726 -27.896276
823000000 -1.7328141 -28.436731
823500000 -1.6991984 -29.020498
824000000 -1.6619396 -29.538759
824500000 -1.6314679 -30.086998
825000000 -1.5995981 -30.579313
825500000 -1.5707672 -31.079437
826000000 -1.5401406 -31.602865
826500000 -1.5064931 -32.103073
827000000 -1.4825855 -32.624447
827500000 -1.4545332 -33.052662
828000000 -1.4331789 -33.524708
828500000 -1.4046061 -34.002068
829000000 -1.3820883 -34.478516
829500000 -1.359588 -34.874756
830000000 -1.340057 -35.342705
830500000 -1.3193082 -35.763107
831000000 -1.2987299 -36.191486
831500000 -1.2792455 -36.614719
832000000 -1.2573869 -37.048195
832500000 -1.2405124 -37.486515
833000000 -1.2218181 -37.863995
833500000 -1.206701 -38.270836
834000000 -1.1883205 -38.676422
834500000 -1.1717144 -39.10244
835000000 -1.1574093 -39.482365
835500000 -1.1438936 -39.833134
836000000 -1.1279526 -40.247353
836500000 -1.1155831 -40.630932
837000000 -1.1027659 -40.988853
837500000 -1.0906502 -41.365089
838000000 -1.0801272 -41.695892
838500000 -1.0640175 -42.089291
839000000 -1.0538105 -42.420586
839500000 -1.0409241 -42.780663
840000000 -1.0277474 -43.133186
840500000 -1.0176841 -43.489468
841000000 -1.0091329 -43.83511
841500000 -0.99385959 -44.178181
842000000 -0.988208 -44.49905
842500000 -0.98042405 -44.831425
843000000 -0.96691811 -45.179241
843500000 -0.95841134 -45.494301
844000000 -0.95247978 -45.849682
844500000 -0.94593996 -46.126286
845000000 -0.93710053 -46.459862
845500000 -0.93244117 -46.831509
846000000 -0.91857481 -47.116077
846500000 -0.91142511 -47.458073
847000000 -0.90253133 -47.761978
847500000 -0.89664501 -48.085777
848000000 -0.89186478 -48.372112
848500000 -0.88829786 -48.705589
849000000 -0.87868679 -49.029564
849500000 -0.87572253 -49.324818
850000000 -0.86825913 -49.646008
850500000 -0.8646338 -49.945244
851000000 -0.85667574 -50.240364
851500000 -0.86032283 -50.550461
852000000 -0.85508311 -50.852093
852500000 -0.84719098 -51.157993
853000000 -0.83945072 -51.450165
853500000 -0.83636278 -51.764065
854000000 -0.835379 -52.05307
854500000 -0.83324718 -52.33535
855000000 -0.83162612 -52.625511
855500000 -0.82697731 -52.93642
856000000 -0.8235659 -53.233929
856500000 -0.82029063 -53.492916
857000000 -0.81914669 -53.799816
857500000 -0.82210106 -54.086349
858000000 -0.81695974 -54.353138
858500000 -0.81851971 -54.623177
859000000 -0.81622839 -54.95451
859500000 -0.81229073 -55.236935
860000000 -0.80946118 -55.506039
860500000 -0.80858421 -55.788963
861000000 -0.8111729 -56.064213
861500000 -0.8094908 -56.335098
862000000 -0.81031179 -56.6194
862500000 -0.80932677 -56.875462
863000000 -0.80500335 -57.166782
863500000 -0.8077932 -57.434967
864000000 -0.80646706 -57.755199
864500000 -0.80893195 -58.00108
865000000 -0.80811995 -58.246017
865500000 -0.80753255 -58.512989
866000000 -0.80478275 -58.817341
866500000 -0.8081193 -59.061222
867000000 -0.80626947 -59.343369
867500000 -0.80651945 -59.640591
868000000 -0.80508876 -59.910084
868500000 -0.80332088 -60.169827
869000000 -0.80484849 -60.479282
869500000 -0.80762482 -60.720814
870000000 -0.80725634 -61.04446
870500000 -0.81261748 -61.285511
871000000 -0.8130039 -61.556568
871500000 -0.80921263 -61.89851
872000000 -0.81084782 -62.158539
872500000 -0.81376404 -62.400124
873000000 -0.81698221 -62.701069
873500000 -0.82027656 -63.002758
874000000 -0.82037598 -63.274998
874500000 -0.82437074 -63.543251
875000000 -0.82606643 -63.824261
875500000 -0.83089292 -64.124977
876000000 -0.83429885 -64.395271
876500000 -0.83848071 -64.694832
877000000 -0.84247488 -64.973221
877500000 -0.84344989 -65.297173
878000000 -0.84405977 -65.545616
878500000 -0.85174686 -65.844925
879000000 -0.85678768 -66.120407
879500000 -0.85806108 -66.405205
880000000 -0.86448467 -66.682404
880500000 -0.86950618 -66.982819
881000000 -0.872289 -67.279579
881500000 -0.87644398 -67.565376
882000000 -0.8841902 -67.866882
882500000 -0.88893944 -68.153481
883000000 -0.8967303 -68.447548
883500000 -0.90312499 -68.762558
884000000 -0.90626657 -69.048676
884500000 -0.91395187 -69.330276
885000000 -0.91868865 -69.61618
885500000 -0.92495632 -69.943466
886000000 -0.93240809 -70.221184
886500000 -0.94051754 -70.531204
887000000 -0.94451338 -70.829086
887500000 -0.95034319 -71.132019
888000000 -0.95728433 -71.434181
888500000 -0.96627522 -71.746719
889000000 -0.97456187 -72.059402
889500000 -0.9798755 -72.351692
890000000 -0.98759347 -72.66214
890500000 -0.99604082 -72.98716
891000000 -1.0044324 -73.29567
891500000 -1.0126466 -73.590294
892000000 -1.0223681 -73.937729
892500000 -1.031607 -74.237617
893000000 -1.0412352 -74.560501
893500000 -1.0476574 -74.889595
894000000 -1.0569643 -75.214806
894500000 -1.0650353 -75.537605
895000000 -1.0768657 -75.852684
895500000 -1.0851655 -76.196037
896000000 -1.0983661 -76.540909
896500000 -1.1040231 -76.856972
897000000 -1.1178186 -77.215385
897500000 -1.1244396 -77.558556
898000000 -1.1334126 -77.894302
898500000 -1.1514678 -78.24781
899000000 -1.1613173 -78.603912
899500000 -1.17343 -78.949738
900000000 -1.1840491 -79.330368
900500000 -1.1906714 -79.690392
901000000 -1.2074119 -80.05677
901500000 -1.2188125 -80.409126
902000000 -1.2332524 -80.7854
902500000 -1.2458572 -81.164177
903000000 -1.2588053 -81.58622
903500000 -1.2729241 -81.947014
904000000 -1.2909006 -82.351151
904500000 -1.3047873 -82.724503
905000000 -1.3210152 -83.149246
905500000 -1.3369663 -83.561409
906000000 -1.3555286 -83.948212
906500000 -1.3723936 -84.357483
907000000 -1.3944434 -84.773026
907500000 -1.4123956 -85.180969
908000000 -1.4336445 -85.592216
908500000 -1.4517086 -86.013519
909000000 -1.4694489 -86.430031
909500000 -1.4909112 -86.85878
910000000 -1.5167855 -87.333931
910500000 -1.5351964 -87.725685
911000000 -1.5590158 -88.165138
911500000 -1.5791807 -88.640137
912000000 -1.6039543 -89.063019
912500000 -1.6269616 -89.542107
913000000 -1.6517291 -89.985947
913500000 -1.6781691 -90.443542
914000000 -1.7013721 -90.921936
914500000 -1.7291615 -91.405243
915000000 -1.7576424 -91.88279
915500000 -1.7853392 -92.386757
916000000 -1.8137027 -92.918816
916500000 -1.8460996 -93.406555
917000000 -1.8763635 -93.931305
917500000 -1.9061925 -94.426476
918000000 -1.9408294 -94.9375
918500000 -1.9763364 -95.486481
919000000 -2.0139618 -96.029739
919500000 -2.0441735 -96.545898
920000000 -2.0847452 -97.10791
920500000 -2.120132 -97.640388
921000000 -2.1580424 -98.215675
921500000 -2.2022712 -98.773384
922000000 -2.2427032 -99.358124
922500000 -2.2816768 -99.910957
923000000 -2.3266077 -100.53314
923500000 -2.3680305 -101.13972
924000000 -2.4165692 -101.74776
924500000 -2.4612215 -102.38901
925000000 -2.5091813 -102.9844
925500000 -2.5623059 -103.62299
926000000 -2.6104009 -104.29984
926500000 -2.6657598 -104.95052
927000000 -2.718925 -105.61568
927500000 -2.774864 -106.32851
928000000 -2.8363273 -107.00787
928500000 -2.89358 -107.70731
929000000 -2.956619 -108.44264
929500000 -3.021822 -109.1819
930000000 -3.0891984 -109.91451
930500000 -3.1605017 -110.66816
931000000 -3.2252233 -111.4524
931500000 -3.2999854 -112.22945
932000000 -3.3761814 -113.04013
932500000 -3.4565527 -113.8534
933000000 -3.5371583 -114.6693
933500000 -3.6239438 -115.50523
934000000 -3.710149 -116.40809
934500000 -3.7980266 -117.2543
935000000 -3.898236 -118.17763
935500000 -3.995497 -119.04691
936000000 -4.1003475 -120.0054
936500000 -4.2061276 -120.92589
937000000 -4.3136196 -121.88288
937500000 -4.4287214 -122.89252
938000000 -4.5485277 -123.86771
938500000 -4.6678572 -124.87498
939000000 -4.7946353 -125.9288
939500000 -4.9292898 -126.96412
940000000 -5.0646896 -128.03862
940500000 -5.2088771 -129.12112
941000000 -5.3473849 -130.26993
941500000 -5.5063086 -131.38632
942000000 -5.657527 -132.57668
942500000 -5.8250337 -133.81352
943000000 -5.9910798 -135.02078
943500000 -6.1680446 -136.28825
944000000 -6.3429856 -137.73109
944500000 -6.5434995 -138.92882
945000000 -6.7342548 -140.33911
945500000 -6.9433594 -141.63789
946000000 -7.1521125 -143.24916
946500000 -7.3743405 -144.80934
947000000 -7.6079197 -146.38004
947500000 -7.851841 -148.03165
948000000 -8.1065874 -149.72321
948500000 -8.3761606 -151.46156
949000000 -8.6607723 -153.30116
949500000 -8.9424009 -155.18488
950000000 -9.2469759 -157.24939
950500000 -9.5724821 -159.30273
951000000 -9.901948 -161.46861
951500000 -10.237999 -163.7184
952000000 -10.600863 -166.18869
952500000 -10.987118 -168.64459
953000000 -11.36119 -171.36674
953500000 -11.759598 -174.27362
954000000 -12.161756 -177.43597
954500000 -12.599219 179.26093
955000000 -13.032003 175.77292
955500000 -13.478437 171.82997
956000000 -13.939523 167.57935
956500000 -14.375712 163.01526
957000000 -14.807568 157.96355
957500000 -15.216368 152.54955
958000000 -15.607682 146.69318
958500000 -15.941323 140.31268
959000000 -16.204605 133.53589
959500000 -16.410725 126.55786
960000000 -16.519394 119.25761
960500000 -16.53406 111.90388
961000000 -16.44883 104.49911
961500000 -16.257872 97.518654
962000000 -15.995731 90.51725
962500000 -15.681704 84.276627
963000000 -15.291885 78.30098
963500000 -14.888041 72.799835
964000000 -14.464538 67.713905
964500000 -14.025525 62.985306
965000000 -13.574653 58.761574
965500000 -13.124679 54.767967
966000000 -12.693294 51.117836
966500000 -12.269846 47.667732
967000000 -11.857107 44.571709
967500000 -11.448526 41.622845
968000000 -11.070704 38.734776
968500000 -10.699892 36.175751
969000000 -10.343296 33.710644
969500000 -10.00524 31.360989
970000000 -9.6803017 29.208101
970500000 -9.3656311 27.060282
971000000 -9.0648928 25.046114
971500000 -8.7826977 23.097147
972000000 -8.50243 21.256731
972500000 -8.2437878 19.434555
973000000 -7.9918284 17.745703
973500000 -7.7469463 16.07877
974000000 -7.5080137 14.478714
974500000 -7.2884569 12.884579
975000000 -7.0796561 11.379423
975500000 -6.8721838 9.9388075
976000000 -6.6763735 8.4746904
976500000 -6.4852967 7.0702701
977000000 -6.3100162 5.7177939
977500000 -6.131824 4.4080338
978000000 -5.967483 3.1879241
978500000 -5.8070931 1.8239523
979000000 -5.6527562 0.63960677
979500000 -5.5041957 -0.55489838
980000000 -5.3668127 -1.7099959
980500000 -5.2293315 -2.8809807
981000000 -5.1028476 -4.0259137
981500000 -4.9706874 -5.1293778
982000000 -4.8536849 -6.1930447
982500000 -4.7372308 -7.2863102
983000000 -4.6189952 -8.2454624
983500000 -4.5157318 -9.3018513
984000000 -4.4114442 -10.267776
984500000 -4.309567 -11.276529
985000000 -4.2088337 -12.214419
985500000 -4.1167631 -13.180515
986000000 -4.0217743 -14.147106
986500000 -3.9405813 -15.069793
987000000 -3.8554313 -15.974872
987500000 -3.7753055 -16.853231
988000000 -3.6942754 -17.765808
988500000 -3.6214795 -18.62653
989000000 -3.5464253 -19.441072
989500000 -3.4821277 -20.267
990000000 -3.4151969 -21.105953
990500000 -3.3491089 -21.91708
991000000 -3.2881734 -22.736383
991500000 -3.2313118 -23.555244
992000000 -3.1746686 -24.354021
992500000 -3.1176274 -25.13048
993000000 -3.0675704 -25.853327
993500000 -3.0128293 -26.603558
994000000 -2.9628844 -27.366987
994500000 -2.9174876 -28.098404
995000000 -2.8716636 -28.787468
995500000 -2.8300841 -29.517298
996000000 -2.7821836 -30.204966
996500000 -2.7387452 -30.865025
997000000 -2.6958992 -31.57057
997500000 -2.6665897 -32.233742
998000000 -2.6253464 -32.894844
998500000 -2.5906203 -33.517368
999000000 -2.5515835 -34.209301
999500000 -2.5185542 -34.846928
1000000000 -2.4836924 -35.463078
1000500000 -2.4541123 -36.104927
1001000000 -2.4253273 -36.744926
1001500000 -2.3935101 -37.366982
1002000000 -2.3623443 -37.965759
1002500000 -2.3308654 -38.557484
1003000000 -2.3043914 -39.174797
1003500000 -2.2777886 -39.796173
1004000000 -2.253813 -40.379978
1004500000 -2.2293851 -40.940708
1005000000 -2.2079904 -41.562489
1005500000 -2.1826763 -42.11499
1006000000 -2.1556885 -42.706242
1006500000 -2.1372037 -43.273632
1007000000 -2.1178031 -43.83041
1007500000 -2.0976965 -44.432987
1008000000 -2.0737724 -44.980228
1008500000 -2.0615745 -45.541313
1009000000 -2.0385222 -46.087509
1009500000 -2.0247152 -46.636787
