!Keysight Technologies,P9371A,MY57212015,Z.15.41.75
!Date: Monday, April 25, 2022 14:26:42
!Correction: S11(C  1-Port  ) 
!S1P File: Measurement: S11:
# Hz S  dB   R 50
700000000 -1.9957688 73.357574
700500000 -2.0000336 73.044868
701000000 -1.9987249 72.761299
701500000 -2.0000384 72.44812
702000000 -2.0035102 72.144356
702500000 -2.0010412 71.801132
703000000 -2.0084913 71.526886
703500000 -2.0023263 71.1968
704000000 -2.0030763 70.887688
704500000 -2.001308 70.588799
705000000 -1.999894 70.291977
705500000 -2.0034738 69.958855
706000000 -1.9996188 69.642387
706500000 -1.997714 69.317253
707000000 -1.991591 68.969429
707500000 -1.9939597 68.659607
708000000 -1.9992795 68.313507
708500000 -1.995802 67.99617
709000000 -1.9959828 67.681107
709500000 -1.991935 67.321075
710000000 -1.9920324 66.979424
710500000 -1.9908925 66.650314
711000000 -1.9942645 66.278496
711500000 -1.9928434 65.917061
712000000 -1.9933959 65.630554
712500000 -1.9934897 65.270638
713000000 -1.9953201 64.939537
713500000 -1.9988422 64.558914
714000000 -1.996105 64.233093
714500000 -1.9982796 63.910156
715000000 -2.0022666 63.548298
715500000 -2.0021584 63.172955
716000000 -2.0051796 62.830513
716500000 -2.0049982 62.466076
717000000 -2.0041623 62.124046
717500000 -2.0077214 61.831154
718000000 -2.0066125 61.435871
718500000 -2.0065362 61.077335
719000000 -2.0073674 60.737499
719500000 -2.0143147 60.388805
720000000 -2.0110073 60.051373
720500000 -2.0149968 59.682564
721000000 -2.0180087 59.348431
721500000 -2.0215755 59.015247
722000000 -2.0248611 58.688026
722500000 -2.0254443 58.31152
723000000 -2.0255172 57.933018
723500000 -2.0233965 57.601013
724000000 -2.0231993 57.244823
724500000 -2.0257125 56.894199
725000000 -2.0255198 56.558567
725500000 -2.0204408 56.209282
726000000 -2.0274684 55.867107
726500000 -2.0212808 55.493916
727000000 -2.0193076 55.143028
727500000 -2.0203173 54.746246
728000000 -2.0222225 54.423637
728500000 -2.0249894 54.040154
729000000 -2.0197263 53.643284
729500000 -2.0195992 53.288166
730000000 -2.0227792 52.921574
730500000 -2.0183203 52.549446
731000000 -2.018189 52.214211
731500000 -2.0174472 51.800236
732000000 -2.0185966 51.405178
732500000 -2.0177233 51.045624
733000000 -2.0250521 50.687603
733500000 -2.0194361 50.291618
734000000 -2.0238624 49.931839
734500000 -2.0220685 49.539265
735000000 -2.0247841 49.189003
735500000 -2.0216737 48.776505
736000000 -2.0250773 48.427502
736500000 -2.0244617 48.043884
737000000 -2.0216348 47.618904
737500000 -2.0257142 47.244888
738000000 -2.0220196 46.871689
738500000 -2.0249021 46.484238
739000000 -2.0244257 46.08757
739500000 -2.0253479 45.669113
740000000 -2.0260422 45.306969
740500000 -2.0233202 44.92704
741000000 -2.0252688 44.492973
741500000 -2.020447 44.0723
742000000 -2.0264847 43.736473
742500000 -2.0282266 43.285244
743000000 -2.0293384 42.860317
743500000 -2.0334361 42.491814
744000000 -2.0345218 42.073635
744500000 -2.0305057 41.608795
745000000 -2.0338457 41.245117
745500000 -2.0379448 40.871689
746000000 -2.04231 40.410492
746500000 -2.0474432 40.007992
747000000 -2.0510621 39.600914
747500000 -2.0552831 39.223587
748000000 -2.0614834 38.78656
748500000 -2.0602303 38.369507
749000000 -2.0611334 37.980103
749500000 -2.0616102 37.582684
750000000 -2.0694897 37.130512
750500000 -2.073133 36.742172
751000000 -2.0729654 36.380653
751500000 -2.0770609 35.95219
752000000 -2.0794909 35.53474
752500000 -2.0805366 35.120926
753000000 -2.0808127 34.713871
753500000 -2.081883 34.307697
754000000 -2.0922651 33.863194
754500000 -2.0874465 33.479195
755000000 -2.0952642 33.050434
755500000 -2.0930033 32.617752
756000000 -2.103384 32.18359
756500000 -2.1061239 31.750948
757000000 -2.1111839 31.349937
757500000 -2.1137481 30.933016
758000000 -2.120522 30.507458
758500000 -2.1165965 30.082224
759000000 -2.1266723 29.646809
759500000 -2.133276 29.20476
760000000 -2.1322625 28.819109
760500000 -2.1371918 28.383511
761000000 -2.1459692 27.958042
761500000 -2.1493657 27.56498
762000000 -2.1489208 27.149048
762500000 -2.1519213 26.706589
763000000 -2.1564138 26.289522
763500000 -2.1517398 25.863844
764000000 -2.1602564 25.428928
764500000 -2.1661327 25.016768
765000000 -2.1701035 24.577923
765500000 -2.1651042 24.176813
766000000 -2.170208 23.707005
766500000 -2.1654551 23.254137
767000000 -2.1710308 22.85817
767500000 -2.1755724 22.409403
768000000 -2.1771617 21.95611
768500000 -2.1807325 21.516033
769000000 -2.1832125 21.04269
769500000 -2.1839678 20.610401
770000000 -2.1866686 20.147633
770500000 -2.1896007 19.721092
771000000 -2.195745 19.20595
771500000 -2.2049842 18.766972
772000000 -2.2036057 18.301945
772500000 -2.2102504 17.828781
773000000 -2.2130659 17.403063
773500000 -2.2144132 16.903568
774000000 -2.2255583 16.456806
774500000 -2.2325072 16.005316
775000000 -2.2290509 15.560421
775500000 -2.2414787 15.122428
776000000 -2.247355 14.649076
776500000 -2.2556276 14.181327
777000000 -2.2632339 13.70022
777500000 -2.2608075 13.248975
778000000 -2.2666135 12.793068
778500000 -2.2710781 12.354061
779000000 -2.277894 11.88509
779500000 -2.2837882 11.431754
780000000 -2.2798436 10.977356
780500000 -2.2894983 10.50639
781000000 -2.294342 10.015158
781500000 -2.2985647 9.5212364
782000000 -2.3004744 9.0559921
782500000 -2.3101082 8.5946836
783000000 -2.3083055 8.1311359
783500000 -2.3226726 7.6560836
784000000 -2.3221731 7.1571136
784500000 -2.331708 6.6721463
785000000 -2.3322234 6.199512
785500000 -2.3436191 5.7270446
786000000 -2.3431599 5.2705345
786500000 -2.3541539 4.7543926
787000000 -2.3625178 4.3065968
787500000 -2.3627591 3.7782199
788000000 -2.3658898 3.360503
788500000 -2.3696566 2.8487694
789000000 -2.3801205 2.3503308
789500000 -2.3875875 1.9047526
790000000 -2.3816509 1.4077969
790500000 -2.3924785 0.92771441
791000000 -2.3980451 0.43778098
791500000 -2.4053202 -0.069875129
792000000 -2.4036927 -0.58916593
792500000 -2.4162292 -1.0740277
793000000 -2.4198685 -1.5733618
793500000 -2.4219987 -2.0875585
794000000 -2.4236054 -2.5991313
794500000 -2.4301991 -3.0538726
795000000 -2.4409118 -3.6130259
795500000 -2.4495761 -4.1141434
796000000 -2.452832 -4.6354685
796500000 -2.4636168 -5.1310368
797000000 -2.4621658 -5.6407547
797500000 -2.4632671 -6.1797032
798000000 -2.472584 -6.6761341
798500000 -2.4797158 -7.1902547
799000000 -2.4842749 -7.7447858
799500000 -2.4921379 -8.2536259
800000000 -2.4978001 -8.7652998
800500000 -2.5084758 -9.2842369
801000000 -2.5188317 -9.8301449
801500000 -2.5184507 -10.325776
802000000 -2.5317218 -10.893724
802500000 -2.533596 -11.398852
803000000 -2.5453653 -11.918272
803500000 -2.5540669 -12.456779
804000000 -2.5529611 -12.980883
804500000 -2.5643003 -13.512062
805000000 -2.5740781 -14.043458
805500000 -2.5834863 -14.572648
806000000 -2.5881109 -15.155725
806500000 -2.5907407 -15.675918
807000000 -2.5951931 -16.215992
807500000 -2.6056151 -16.752085
808000000 -2.6103706 -17.312819
808500000 -2.6218839 -17.822048
809000000 -2.6292114 -18.38459
809500000 -2.6391518 -18.932379
810000000 -2.6367137 -19.499981
810500000 -2.654958 -20.00042
811000000 -2.6554689 -20.596956
811500000 -2.6651263 -21.097588
812000000 -2.6737268 -21.69697
812500000 -2.6833506 -22.250324
813000000 -2.6876454 -22.805811
813500000 -2.6937001 -23.35911
814000000 -2.7004504 -23.923798
814500000 -2.7096379 -24.507725
815000000 -2.7137465 -25.039846
815500000 -2.7199039 -25.639187
816000000 -2.7294481 -26.210049
816500000 -2.7357805 -26.778225
817000000 -2.7437949 -27.319201
817500000 -2.7546668 -27.903337
818000000 -2.763464 -28.470501
818500000 -2.7670541 -29.088133
819000000 -2.7704751 -29.687716
819500000 -2.7854416 -30.285072
820000000 -2.7847676 -30.841717
820500000 -2.7932582 -31.40995
821000000 -2.7986033 -32.022987
821500000 -2.8097003 -32.621136
822000000 -2.8071773 -33.214642
822500000 -2.8149474 -33.829922
823000000 -2.8261547 -34.443478
823500000 -2.8310642 -35.068928
824000000 -2.8366437 -35.712345
824500000 -2.8478642 -36.329922
825000000 -2.8534393 -36.945465
825500000 -2.8573756 -37.577534
826000000 -2.8700984 -38.221573
826500000 -2.8811965 -38.869328
827000000 -2.8922622 -39.50275
827500000 -2.8988585 -40.12133
828000000 -2.9167011 -40.762428
828500000 -2.9252698 -41.409229
829000000 -2.9364095 -42.053696
829500000 -2.9450195 -42.683186
830000000 -2.9541323 -43.319893
830500000 -2.9636307 -43.983395
831000000 -2.9737735 -44.6521
831500000 -2.986464 -45.256607
832000000 -3.0017867 -45.919342
832500000 -3.0104496 -46.574806
833000000 -3.0275056 -47.24015
833500000 -3.0360732 -47.882809
834000000 -3.0493615 -48.529293
834500000 -3.0643487 -49.208157
835000000 -3.0697973 -49.828804
835500000 -3.0883744 -50.494335
836000000 -3.1027069 -51.162571
836500000 -3.1121585 -51.827293
837000000 -3.1230571 -52.463287
837500000 -3.1336572 -53.135174
838000000 -3.149991 -53.783195
838500000 -3.1548369 -54.499584
839000000 -3.1687233 -55.125492
839500000 -3.1797891 -55.830406
840000000 -3.1914029 -56.515282
840500000 -3.2057462 -57.229488
841000000 -3.2187514 -57.858738
841500000 -3.2291 -58.573246
842000000 -3.2431698 -59.278824
842500000 -3.2558 -59.940872
843000000 -3.271903 -60.652676
843500000 -3.2823329 -61.334213
844000000 -3.2981646 -62.059223
844500000 -3.3072984 -62.748886
845000000 -3.3219299 -63.461063
845500000 -3.3361793 -64.213486
846000000 -3.3458831 -64.919243
846500000 -3.3620822 -65.610245
847000000 -3.3777852 -66.354332
847500000 -3.3917894 -67.061653
848000000 -3.4065444 -67.797188
848500000 -3.424993 -68.529839
849000000 -3.4406681 -69.264511
849500000 -3.4603479 -70.002159
850000000 -3.4737086 -70.682892
850500000 -3.4933248 -71.44883
851000000 -3.5119114 -72.163002
851500000 -3.5323403 -72.885742
852000000 -3.5430841 -73.636848
852500000 -3.5625095 -74.358009
853000000 -3.5784335 -75.056183
853500000 -3.5929391 -75.799881
854000000 -3.610816 -76.546524
854500000 -3.6256917 -77.275749
855000000 -3.6466272 -78.002998
855500000 -3.6622727 -78.758759
856000000 -3.6743505 -79.501602
856500000 -3.6980858 -80.257927
857000000 -3.7161252 -80.969215
857500000 -3.7314656 -81.704025
858000000 -3.7475028 -82.435944
858500000 -3.763963 -83.199287
859000000 -3.7861512 -83.930229
859500000 -3.7976487 -84.669205
860000000 -3.8169608 -85.402054
860500000 -3.833106 -86.161789
861000000 -3.8506198 -86.895409
861500000 -3.8666124 -87.623039
862000000 -3.877686 -88.387932
862500000 -3.892509 -89.143402
863000000 -3.9092677 -89.875961
863500000 -3.9263604 -90.669945
864000000 -3.9333415 -91.40493
864500000 -3.9542346 -92.194138
865000000 -3.9637766 -92.954605
865500000 -3.9796405 -93.74086
866000000 -3.9947889 -94.508148
866500000 -4.0117722 -95.292107
867000000 -4.0278916 -96.049332
867500000 -4.0354366 -96.856049
868000000 -4.0522037 -97.609009
868500000 -4.0666909 -98.384026
869000000 -4.0816975 -99.143394
869500000 -4.096128 -99.934959
870000000 -4.1083488 -100.72406
870500000 -4.1189237 -101.49627
871000000 -4.1331501 -102.29082
871500000 -4.1440105 -103.07442
872000000 -4.1541381 -103.8939
872500000 -4.1670961 -104.71843
873000000 -4.1791759 -105.54227
873500000 -4.1904016 -106.36476
874000000 -4.1994114 -107.16161
874500000 -4.2159414 -108.00516
875000000 -4.2277799 -108.80009
875500000 -4.2436461 -109.64556
876000000 -4.2533727 -110.43449
876500000 -4.2661724 -111.24915
877000000 -4.2799368 -112.08105
877500000 -4.2928596 -112.90318
878000000 -4.3036695 -113.71323
878500000 -4.3115029 -114.55643
879000000 -4.3265047 -115.39102
879500000 -4.340354 -116.20388
880000000 -4.3468256 -117.02174
880500000 -4.3569317 -117.87984
881000000 -4.3684511 -118.67803
881500000 -4.3774037 -119.53104
882000000 -4.3876066 -120.35665
882500000 -4.3992238 -121.24896
883000000 -4.4040484 -122.06879
883500000 -4.4139385 -122.8784
884000000 -4.4241748 -123.75613
884500000 -4.4345388 -124.60089
885000000 -4.440217 -125.47047
885500000 -4.4541221 -126.29668
886000000 -4.4586182 -127.17385
886500000 -4.4733667 -128.03574
887000000 -4.4816666 -128.89287
887500000 -4.4909348 -129.73997
888000000 -4.4915013 -130.57495
888500000 -4.497622 -131.42435
889000000 -4.5121794 -132.29303
889500000 -4.5235 -133.13124
890000000 -4.5289721 -133.99391
890500000 -4.5345206 -134.84129
891000000 -4.5379305 -135.70305
891500000 -4.5368295 -136.56137
892000000 -4.5466204 -137.43715
892500000 -4.5490394 -138.27937
893000000 -4.5498791 -139.1456
893500000 -4.549778 -140.0631
894000000 -4.5533214 -140.92621
894500000 -4.5552845 -141.79332
895000000 -4.5651884 -142.67741
895500000 -4.5631833 -143.54564
896000000 -4.5623145 -144.4731
896500000 -4.5702791 -145.35052
897000000 -4.574573 -146.20355
897500000 -4.5696831 -147.10593
898000000 -4.5775933 -147.98959
898500000 -4.5743265 -148.84253
899000000 -4.5739307 -149.75925
899500000 -4.5659876 -150.62123
900000000 -4.570116 -151.50375
900500000 -4.5644312 -152.36746
901000000 -4.5617108 -153.26973
901500000 -4.5581269 -154.21332
902000000 -4.5505624 -155.0994
902500000 -4.5511999 -155.98636
903000000 -4.5410976 -156.90894
903500000 -4.53508 -157.80946
904000000 -4.5292392 -158.74397
904500000 -4.5268788 -159.70882
905000000 -4.5228829 -160.63976
905500000 -4.5206132 -161.55951
906000000 -4.5162249 -162.47104
906500000 -4.5092487 -163.45235
907000000 -4.5022292 -164.37852
907500000 -4.5058112 -165.35223
908000000 -4.4967914 -166.30157
908500000 -4.5000429 -167.25717
909000000 -4.4934444 -168.20282
909500000 -4.4970765 -169.12958
910000000 -4.4902263 -170.08791
910500000 -4.4966249 -171.02544
911000000 -4.4931731 -171.93576
911500000 -4.4957552 -172.84537
912000000 -4.4932919 -173.82077
912500000 -4.4845786 -174.71492
913000000 -4.4866571 -175.66055
913500000 -4.4850368 -176.60767
914000000 -4.4875751 -177.49355
914500000 -4.4807839 -178.42935
915000000 -4.4776974 -179.36656
915500000 -4.4775972 179.71777
916000000 -4.4721131 178.8045
916500000 -4.4756804 177.85924
917000000 -4.4731555 176.94714
917500000 -4.4735827 176.02014
918000000 -4.4745817 175.15576
918500000 -4.4653363 174.17992
919000000 -4.4732213 173.31891
919500000 -4.4621863 172.43286
920000000 -4.4687281 171.54741
920500000 -4.4618464 170.63271
921000000 -4.467567 169.72815
921500000 -4.4583097 168.86319
922000000 -4.464056 167.99841
922500000 -4.4525771 167.10519
923000000 -4.4508915 166.2235
923500000 -4.4437804 165.37871
924000000 -4.4391637 164.48662
924500000 -4.4372888 163.61475
925000000 -4.4294553 162.73593
925500000 -4.4222775 161.89816
926000000 -4.4133372 161.01668
926500000 -4.4077883 160.15955
927000000 -4.4044595 159.2818
927500000 -4.3998775 158.41602
928000000 -4.3915682 157.55992
928500000 -4.3882647 156.6891
929000000 -4.3795214 155.83806
929500000 -4.3670464 154.9912
930000000 -4.3602686 154.1429
930500000 -4.3553977 153.33615
931000000 -4.3494534 152.45804
931500000 -4.3382049 151.5923
932000000 -4.3353653 150.77394
932500000 -4.3211079 149.97168
933000000 -4.3139439 149.13335
933500000 -4.3035054 148.29451
934000000 -4.2973337 147.48924
934500000 -4.284266 146.64536
935000000 -4.2745504 145.834
935500000 -4.2658253 144.97911
936000000 -4.2525377 144.16087
936500000 -4.2422657 143.33771
937000000 -4.2328072 142.52928
937500000 -4.2220907 141.6875
938000000 -4.2043738 140.91399
938500000 -4.1942229 140.07336
939000000 -4.1867065 139.26012
939500000 -4.1718593 138.43655
940000000 -4.1623526 137.63303
940500000 -4.1475339 136.8472
941000000 -4.1419735 136.01682
941500000 -4.1296716 135.22701
942000000 -4.1156487 134.43971
942500000 -4.1045847 133.64821
943000000 -4.0855613 132.97357
943500000 -4.0800486 132.04085
944000000 -4.0627103 131.30183
944500000 -4.0583205 130.47495
945000000 -4.0436964 129.69281
945500000 -4.0363164 128.93318
946000000 -4.0200844 128.12907
946500000 -4.0114751 127.36009
947000000 -4.0023947 126.60848
947500000 -3.9858143 125.80669
948000000 -3.9732962 125.01292
948500000 -3.9596224 124.28632
949000000 -3.9483354 123.50896
949500000 -3.9385738 122.74628
950000000 -3.9267478 122.00407
950500000 -3.9165261 121.24874
951000000 -3.8963256 120.51902
951500000 -3.889503 119.77237
952000000 -3.8788664 119.01665
952500000 -3.8644712 118.25558
953000000 -3.8454924 117.57226
953500000 -3.8361926 116.79592
954000000 -3.8204598 116.0694
954500000 -3.8125913 115.3022
955000000 -3.8014224 114.57526
955500000 -3.7879024 113.83569
956000000 -3.7722149 113.12086
956500000 -3.7624583 112.40289
957000000 -3.7507176 111.75674
957500000 -3.7379498 110.99579
958000000 -3.7207122 110.29089
958500000 -3.7055316 109.5845
959000000 -3.6995637 108.88754
959500000 -3.67472 108.13199
960000000 -3.6671684 107.48425
960500000 -3.6548808 106.75758
961000000 -3.6392872 106.06779
961500000 -3.6247952 105.34025
962000000 -3.6148088 104.65017
962500000 -3.6001446 103.99649
963000000 -3.5864875 103.28999
963500000 -3.5766952 102.62669
964000000 -3.5621948 101.90651
964500000 -3.5446858 101.21123
965000000 -3.5287285 100.51662
965500000 -3.5178914 99.828224
966000000 -3.5053136 99.170395
966500000 -3.4871559 98.512306
967000000 -3.4789684 97.850105
967500000 -3.4656191 97.164482
968000000 -3.4492011 96.490677
968500000 -3.4396122 95.816528
969000000 -3.4246233 95.158653
969500000 -3.409338 94.513496
970000000 -3.392055 93.829926
970500000 -3.3806257 93.190292
971000000 -3.3757529 92.561981
971500000 -3.3589664 91.890396
972000000 -3.3452127 91.232063
972500000 -3.3316176 90.578819
973000000 -3.3191371 89.92086
973500000 -3.3011148 89.276108
974000000 -3.2859511 88.617645
974500000 -3.283165 87.964363
975000000 -3.2655015 87.322182
975500000 -3.2476294 86.708893
976000000 -3.2322657 86.054962
976500000 -3.2273431 85.431824
977000000 -3.2188478 84.784355
977500000 -3.2088726 84.205841
978000000 -3.1854 83.540611
978500000 -3.1732876 82.899086
979000000 -3.1638412 82.287216
979500000 -3.1552992 81.64817
980000000 -3.1410627 80.999023
980500000 -3.1307747 80.380028
981000000 -3.1230061 79.755051
981500000 -3.1160011 79.103683
982000000 -3.1057339 78.476944
982500000 -3.0989916 77.897972
983000000 -3.0851831 77.282715
983500000 -3.0795858 76.678062
984000000 -3.0719507 76.104439
984500000 -3.0646124 75.511597
985000000 -3.0578578 74.908302
985500000 -3.0486832 74.299294
986000000 -3.0448997 73.723404
986500000 -3.0383699 73.202454
987000000 -3.0268626 72.582489
987500000 -3.0127406 72.040932
988000000 -3.0091057 71.505333
988500000 -2.9994884 70.908424
989000000 -2.9938083 70.371399
989500000 -2.9807906 69.802879
990000000 -2.9677777 69.238091
990500000 -2.9538641 68.669731
991000000 -2.9493606 68.106613
991500000 -2.9384129 67.60054
992000000 -2.9296737 67.02005
992500000 -2.9184651 66.518494
993000000 -2.9121909 65.934692
993500000 -2.9038155 65.43293
994000000 -2.8882074 64.882774
994500000 -2.8743241 64.332344
995000000 -2.8689635 63.805977
995500000 -2.853266 63.227608
996000000 -2.8460755 62.677956
996500000 -2.8344536 62.157681
997000000 -2.8231754 61.684586
997500000 -2.8156767 61.150116
998000000 -2.8036032 60.584209
998500000 -2.7979152 60.038021
999000000 -2.7911096 59.5075
999500000 -2.7724078 59.010609
1000000000 -2.7663214 58.490879
1000500000 -2.7543428 57.997631
1001000000 -2.7469053 57.449261
1001500000 -2.7376966 56.958015
1002000000 -2.7243841 56.425533
1002500000 -2.7107103 55.949146
1003000000 -2.701714 55.410786
1003500000 -2.6966746 54.912186
1004000000 -2.6828463 54.371155
1004500000 -2.6710744 53.885899
1005000000 -2.6583831 53.39912
1005500000 -2.6465149 52.891361
1006000000 -2.6399376 52.40427
1006500000 -2.6281579 51.905167
1007000000 -2.6173408 51.412502
1007500000 -2.5989747 50.881832
1008000000 -2.5928769 50.378578
1008500000 -2.5792875 49.894341
1009000000 -2.5615804 49.397255
1009500000 -2.552758 48.845203
1010000000 -2.5468998 48.381672
1010500000 -2.5308154 47.868858
1011000000 -2.5222101 47.34964
1011500000 -2.5116651 46.879784
1012000000 -2.5000303 46.345032
1012500000 -2.4909501 45.867592
1013000000 -2.4798625 45.345737
1013500000 -2.4793749 44.831612
1014000000 -2.4689581 44.370682
1014500000 -2.4544475 43.891766
1015000000 -2.4488137 43.358433
1015500000 -2.438138 42.868576
1016000000 -2.4326673 42.387081
1016500000 -2.4201567 41.908325
